!Device	Rohde-Schwarz,ZNB8-2Port,1311601042106781,2.40
!Address	192.168.0.108
!Info	Rasmus filter
!Note	S11,S22,S21,S12 fetched from instrument
!Date	2023.02.17
!Time	10.06.53
!Program	CaptureVisa64 v1.0.30
!Start	1.4000000 GHz	P1 offset	0
!Stop	1.7000000 GHz	P2 offset	0
!Step	100.000 kHz	P3 offset	N.A.
!Points	3001	P4 offset	N.A.
!RBW	10.00 kHz
!SweepTime	525.2 ms	Average	10
!PowerLevel	-30.00 dBm
!
# MHZ S DB R 50
!	S11dB	S11ang	S21dB	S21ang	S12dB	S12ang	S22dB	S22ang	!	S11 RL [dB]	S22 RL [dB]	S21 Gain [dB]	S12 Gain [dB]
1400.00000	-827.018E-3	45.1051	-30.3989	-41.8306	-30.3629	-41.5531	-759.124E-3	69.1225	!	-0.827	-0.759	-30.399	-30.363
1400.10000	-841.166E-3	44.9102	-30.3453	-41.2344	-30.3285	-41.6484	-774.163E-3	69.0670	!	-0.841	-0.774	-30.345	-30.328
1400.20000	-815.825E-3	44.7264	-30.3463	-41.5913	-30.3976	-41.5199	-772.318E-3	69.1168	!	-0.816	-0.772	-30.346	-30.398
1400.30000	-847.076E-3	44.7568	-30.2987	-41.5932	-30.3648	-41.7158	-771.752E-3	68.9573	!	-0.847	-0.772	-30.299	-30.365
1400.40000	-827.610E-3	44.6927	-30.2656	-41.6111	-30.3453	-41.7900	-779.188E-3	68.8285	!	-0.828	-0.779	-30.266	-30.345
1400.50000	-837.244E-3	44.5757	-30.2153	-41.9553	-30.3437	-41.7532	-766.469E-3	68.8661	!	-0.837	-0.766	-30.215	-30.344
1400.60000	-841.463E-3	44.6083	-30.2984	-41.7643	-30.2370	-41.9742	-753.830E-3	68.8526	!	-0.841	-0.754	-30.298	-30.237
1400.70000	-848.427E-3	44.5346	-30.3391	-41.6140	-30.3052	-41.6478	-775.310E-3	68.8352	!	-0.848	-0.775	-30.339	-30.305
1400.80000	-845.037E-3	44.5381	-30.2619	-41.8872	-30.2667	-42.1523	-774.699E-3	68.7410	!	-0.845	-0.775	-30.262	-30.267
1400.90000	-835.740E-3	44.4461	-30.2294	-42.2744	-30.2487	-42.4933	-760.728E-3	68.6249	!	-0.836	-0.761	-30.229	-30.249
1401.00000	-848.267E-3	44.4057	-30.2588	-42.0640	-30.2787	-42.3373	-769.859E-3	68.5551	!	-0.848	-0.770	-30.259	-30.279
1401.10000	-859.855E-3	44.3517	-30.2040	-42.2203	-30.2636	-42.2580	-780.297E-3	68.4576	!	-0.860	-0.780	-30.204	-30.264
1401.20000	-851.339E-3	44.2317	-30.2625	-42.1672	-30.2279	-42.2860	-780.961E-3	68.4994	!	-0.851	-0.781	-30.263	-30.228
1401.30000	-864.183E-3	44.2374	-30.2238	-42.4040	-30.2177	-42.3256	-795.294E-3	68.4023	!	-0.864	-0.795	-30.224	-30.218
1401.40000	-856.715E-3	44.0735	-30.2366	-42.7712	-30.2017	-42.4292	-792.025E-3	68.4589	!	-0.857	-0.792	-30.237	-30.202
1401.50000	-857.115E-3	44.0635	-30.2004	-42.8224	-30.1953	-42.2434	-794.659E-3	68.3141	!	-0.857	-0.795	-30.200	-30.195
1401.60000	-864.572E-3	44.1737	-30.2353	-42.7666	-30.1994	-42.6847	-799.053E-3	68.3103	!	-0.865	-0.799	-30.235	-30.199
1401.70000	-872.336E-3	44.0475	-30.1919	-42.5426	-30.2203	-42.5833	-792.492E-3	68.3550	!	-0.872	-0.792	-30.192	-30.220
1401.80000	-866.076E-3	43.9277	-30.2130	-43.0812	-30.1653	-42.6488	-790.267E-3	68.3378	!	-0.866	-0.790	-30.213	-30.165
1401.90000	-872.243E-3	43.8280	-30.2370	-42.6954	-30.1534	-42.4892	-800.278E-3	68.1740	!	-0.872	-0.800	-30.237	-30.153
1402.00000	-875.720E-3	43.8600	-30.1772	-42.5472	-30.1543	-42.5862	-797.386E-3	68.0437	!	-0.876	-0.797	-30.177	-30.154
1402.10000	-875.003E-3	43.8517	-30.2076	-43.1256	-30.1491	-43.0285	-790.483E-3	68.0689	!	-0.875	-0.790	-30.208	-30.149
1402.20000	-878.672E-3	43.7621	-30.1412	-42.8303	-30.1694	-42.8618	-802.647E-3	68.0421	!	-0.879	-0.803	-30.141	-30.169
1402.30000	-886.324E-3	43.6885	-30.2253	-43.1853	-30.1519	-42.6809	-798.193E-3	68.1015	!	-0.886	-0.798	-30.225	-30.152
1402.40000	-879.262E-3	43.6965	-30.2066	-43.1472	-30.1663	-42.9067	-815.765E-3	68.0720	!	-0.879	-0.816	-30.207	-30.166
1402.50000	-887.037E-3	43.6859	-30.1444	-43.2873	-30.1198	-43.4380	-794.563E-3	67.9013	!	-0.887	-0.795	-30.144	-30.120
1402.60000	-879.184E-3	43.5726	-30.1497	-43.1929	-30.1367	-43.2282	-806.867E-3	67.8112	!	-0.879	-0.807	-30.150	-30.137
1402.70000	-891.658E-3	43.5081	-30.1101	-43.3966	-30.2027	-43.1314	-813.519E-3	67.8961	!	-0.892	-0.814	-30.110	-30.203
1402.80000	-886.278E-3	43.4437	-30.1357	-43.2219	-30.1676	-43.2948	-828.809E-3	67.8125	!	-0.886	-0.829	-30.136	-30.168
1402.90000	-890.116E-3	43.3932	-30.1248	-43.4497	-30.1731	-43.0411	-836.883E-3	67.7174	!	-0.890	-0.837	-30.125	-30.173
1403.00000	-895.984E-3	43.4236	-30.1289	-43.4449	-30.0603	-43.2461	-811.467E-3	67.8005	!	-0.896	-0.811	-30.129	-30.060
1403.10000	-911.572E-3	43.3775	-30.0619	-43.4805	-30.1434	-43.1401	-812.835E-3	67.8565	!	-0.912	-0.813	-30.062	-30.143
1403.20000	-892.060E-3	43.3802	-30.1125	-43.2808	-30.1057	-43.4673	-818.946E-3	67.6585	!	-0.892	-0.819	-30.112	-30.106
1403.30000	-896.171E-3	43.2912	-30.0762	-43.9894	-30.1024	-43.5883	-816.761E-3	67.6564	!	-0.896	-0.817	-30.076	-30.102
1403.40000	-901.534E-3	43.2445	-30.0893	-43.2109	-30.0481	-43.7151	-813.971E-3	67.7777	!	-0.902	-0.814	-30.089	-30.048
1403.50000	-910.443E-3	43.1786	-30.1395	-43.6924	-30.0997	-43.4724	-831.994E-3	67.5880	!	-0.910	-0.832	-30.139	-30.100
1403.60000	-904.163E-3	43.0586	-30.1175	-43.4815	-30.0357	-43.5443	-827.058E-3	67.5807	!	-0.904	-0.827	-30.118	-30.036
1403.70000	-902.104E-3	43.1934	-30.0957	-43.8558	-30.0870	-43.2933	-812.610E-3	67.5018	!	-0.902	-0.813	-30.096	-30.087
1403.80000	-904.078E-3	43.0980	-30.0534	-43.2831	-30.0337	-43.2468	-820.252E-3	67.6031	!	-0.904	-0.820	-30.053	-30.034
1403.90000	-920.071E-3	42.9757	-30.0437	-43.7805	-30.0866	-43.6631	-827.436E-3	67.5225	!	-0.920	-0.827	-30.044	-30.087
1404.00000	-913.535E-3	43.0696	-30.0867	-43.6823	-30.0245	-43.4537	-820.842E-3	67.5203	!	-0.914	-0.821	-30.087	-30.025
1404.10000	-916.045E-3	42.9705	-30.1245	-43.6796	-30.0638	-43.8729	-820.792E-3	67.5393	!	-0.916	-0.821	-30.125	-30.064
1404.20000	-910.212E-3	42.9164	-30.1195	-44.3836	-30.0166	-43.3305	-799.840E-3	67.4186	!	-0.910	-0.800	-30.120	-30.017
1404.30000	-926.508E-3	43.0020	-30.1169	-43.6359	-30.0283	-43.8539	-827.328E-3	67.2582	!	-0.927	-0.827	-30.117	-30.028
1404.40000	-904.986E-3	42.9369	-30.0584	-43.5847	-30.0414	-43.5835	-826.581E-3	67.4569	!	-0.905	-0.827	-30.058	-30.041
1404.50000	-910.444E-3	42.8551	-30.0489	-43.6052	-30.0514	-43.5758	-828.863E-3	67.3640	!	-0.910	-0.829	-30.049	-30.051
1404.60000	-942.547E-3	42.7710	-30.0758	-43.7553	-30.0703	-43.8704	-827.156E-3	67.3031	!	-0.943	-0.827	-30.076	-30.070
1404.70000	-916.338E-3	42.8806	-30.0683	-43.7978	-30.0412	-43.7314	-812.626E-3	67.1705	!	-0.916	-0.813	-30.068	-30.041
1404.80000	-917.616E-3	42.7277	-30.0556	-43.7945	-30.0395	-43.5428	-797.240E-3	67.2860	!	-0.918	-0.797	-30.056	-30.039
1404.90000	-906.050E-3	42.7442	-30.0297	-43.5163	-30.0773	-43.6809	-818.393E-3	67.1820	!	-0.906	-0.818	-30.030	-30.077
1405.00000	-910.988E-3	42.7310	-30.0063	-44.1040	-29.9708	-44.0350	-806.866E-3	67.1170	!	-0.911	-0.807	-30.006	-29.971
1405.10000	-899.890E-3	42.6340	-29.9770	-44.0105	-30.0429	-43.6355	-794.793E-3	67.0696	!	-0.900	-0.795	-29.977	-30.043
1405.20000	-903.177E-3	42.6638	-30.0030	-43.7209	-29.9716	-43.7849	-805.502E-3	67.0119	!	-0.903	-0.806	-30.003	-29.972
1405.30000	-898.254E-3	42.5587	-30.0355	-43.6278	-29.9673	-43.7757	-798.579E-3	66.9314	!	-0.898	-0.799	-30.035	-29.967
1405.40000	-886.177E-3	42.5089	-29.9636	-43.5153	-29.9884	-43.6356	-825.063E-3	67.0178	!	-0.886	-0.825	-29.964	-29.988
1405.50000	-894.444E-3	42.4813	-29.9443	-43.9811	-29.9115	-43.6857	-814.704E-3	66.9627	!	-0.894	-0.815	-29.944	-29.912
1405.60000	-885.925E-3	42.4575	-29.9097	-43.7883	-29.8825	-43.4147	-770.823E-3	66.8238	!	-0.886	-0.771	-29.910	-29.882
1405.70000	-894.600E-3	42.3241	-29.9510	-43.9095	-29.8857	-43.5240	-800.404E-3	66.8054	!	-0.895	-0.800	-29.951	-29.886
1405.80000	-885.589E-3	42.3629	-29.9251	-43.6394	-29.9136	-43.7795	-781.787E-3	66.8006	!	-0.886	-0.782	-29.925	-29.914
1405.90000	-876.288E-3	42.2194	-29.9021	-44.1209	-29.9427	-43.8550	-773.799E-3	66.7048	!	-0.876	-0.774	-29.902	-29.943
1406.00000	-883.505E-3	42.2219	-29.9252	-43.7444	-29.9220	-43.6535	-782.390E-3	66.6967	!	-0.884	-0.782	-29.925	-29.922
1406.10000	-888.176E-3	42.1477	-29.9027	-44.0767	-29.8697	-44.0556	-768.783E-3	66.5053	!	-0.888	-0.769	-29.903	-29.870
1406.20000	-872.876E-3	42.1046	-29.8316	-43.7520	-29.9051	-43.6698	-780.825E-3	66.4971	!	-0.873	-0.781	-29.832	-29.905
1406.30000	-877.402E-3	42.0782	-29.8469	-43.6510	-29.8910	-43.9416	-769.901E-3	66.5435	!	-0.877	-0.770	-29.847	-29.891
1406.40000	-861.861E-3	42.0591	-29.9030	-43.7145	-29.8428	-44.2348	-760.691E-3	66.3253	!	-0.862	-0.761	-29.903	-29.843
1406.50000	-861.950E-3	41.9848	-29.8489	-44.5034	-29.8272	-43.8990	-784.319E-3	66.3370	!	-0.862	-0.784	-29.849	-29.827
1406.60000	-856.885E-3	41.8193	-29.7981	-44.0458	-29.8245	-43.7218	-776.898E-3	66.2750	!	-0.857	-0.777	-29.798	-29.825
1406.70000	-860.635E-3	41.7741	-29.8368	-43.7874	-29.7766	-44.0218	-765.170E-3	66.2099	!	-0.861	-0.765	-29.837	-29.777
1406.80000	-855.528E-3	41.7979	-29.7921	-44.3760	-29.8015	-44.1137	-753.890E-3	66.0649	!	-0.856	-0.754	-29.792	-29.801
1406.90000	-845.183E-3	41.6671	-29.7581	-44.4454	-29.7741	-44.2624	-749.640E-3	66.0096	!	-0.845	-0.750	-29.758	-29.774
1407.00000	-846.970E-3	41.5542	-29.7658	-44.4034	-29.7685	-43.9163	-769.008E-3	65.9831	!	-0.847	-0.769	-29.766	-29.768
1407.10000	-857.010E-3	41.5641	-29.7780	-44.2972	-29.7443	-44.0476	-759.711E-3	65.9821	!	-0.857	-0.760	-29.778	-29.744
1407.20000	-853.575E-3	41.4473	-29.7267	-44.4561	-29.7515	-44.1193	-765.758E-3	66.0107	!	-0.854	-0.766	-29.727	-29.751
1407.30000	-857.487E-3	41.5260	-29.7744	-44.3112	-29.7768	-44.1982	-764.034E-3	65.9588	!	-0.857	-0.764	-29.774	-29.777
1407.40000	-864.435E-3	41.2996	-29.7353	-44.3043	-29.6872	-44.1431	-755.107E-3	65.7991	!	-0.864	-0.755	-29.735	-29.687
1407.50000	-846.580E-3	41.3899	-29.7435	-43.8428	-29.7330	-44.5415	-766.958E-3	65.6970	!	-0.847	-0.767	-29.743	-29.733
1407.60000	-855.575E-3	41.1785	-29.7411	-44.4533	-29.6665	-44.4977	-753.480E-3	65.6286	!	-0.856	-0.753	-29.741	-29.667
1407.70000	-843.702E-3	41.0749	-29.6879	-44.5118	-29.6611	-44.2494	-752.475E-3	65.7181	!	-0.844	-0.752	-29.688	-29.661
1407.80000	-860.923E-3	41.1643	-29.7133	-44.3811	-29.6512	-44.3267	-758.315E-3	65.5131	!	-0.861	-0.758	-29.713	-29.651
1407.90000	-844.637E-3	41.0431	-29.6651	-44.8188	-29.6762	-44.3659	-769.030E-3	65.5017	!	-0.845	-0.769	-29.665	-29.676
1408.00000	-840.292E-3	40.9494	-29.6714	-44.7444	-29.6736	-44.5828	-767.373E-3	65.3653	!	-0.840	-0.767	-29.671	-29.674
1408.10000	-856.217E-3	40.8145	-29.6617	-44.9720	-29.6474	-44.5124	-766.918E-3	65.2695	!	-0.856	-0.767	-29.662	-29.647
1408.20000	-838.725E-3	40.8550	-29.6635	-44.7804	-29.6247	-44.5038	-756.959E-3	65.2725	!	-0.839	-0.757	-29.664	-29.625
1408.30000	-858.212E-3	40.6991	-29.6190	-44.5181	-29.5725	-44.5793	-755.020E-3	65.1703	!	-0.858	-0.755	-29.619	-29.573
1408.40000	-837.265E-3	40.6289	-29.5564	-44.9427	-29.5719	-44.7386	-770.253E-3	65.2213	!	-0.837	-0.770	-29.556	-29.572
1408.50000	-841.054E-3	40.5319	-29.5782	-44.5399	-29.5787	-44.7432	-785.775E-3	65.1077	!	-0.841	-0.786	-29.578	-29.579
1408.60000	-860.421E-3	40.5525	-29.5570	-45.1436	-29.5340	-44.6401	-773.616E-3	64.9101	!	-0.860	-0.774	-29.557	-29.534
1408.70000	-850.559E-3	40.3891	-29.5681	-45.1338	-29.5124	-44.9821	-763.676E-3	64.8639	!	-0.851	-0.764	-29.568	-29.512
1408.80000	-857.044E-3	40.3315	-29.5409	-45.1819	-29.5597	-45.5074	-759.801E-3	64.7366	!	-0.857	-0.760	-29.541	-29.560
1408.90000	-857.961E-3	40.2007	-29.5549	-44.9791	-29.5391	-44.8598	-759.758E-3	64.8279	!	-0.858	-0.760	-29.555	-29.539
1409.00000	-860.824E-3	40.1743	-29.5501	-45.2765	-29.5314	-45.2304	-774.031E-3	64.7923	!	-0.861	-0.774	-29.550	-29.531
1409.10000	-828.593E-3	40.2097	-29.5421	-45.2209	-29.5535	-45.1172	-771.904E-3	64.6071	!	-0.829	-0.772	-29.542	-29.554
1409.20000	-848.970E-3	40.0362	-29.5154	-45.1944	-29.5045	-45.2655	-782.221E-3	64.5736	!	-0.849	-0.782	-29.515	-29.504
1409.30000	-846.394E-3	39.9731	-29.5522	-45.2515	-29.4999	-45.5512	-771.781E-3	64.4472	!	-0.846	-0.772	-29.552	-29.500
1409.40000	-838.372E-3	39.9641	-29.4983	-45.2919	-29.4673	-45.4339	-772.376E-3	64.3893	!	-0.838	-0.772	-29.498	-29.467
1409.50000	-856.875E-3	39.8385	-29.4620	-45.5308	-29.4530	-45.2394	-787.555E-3	64.3380	!	-0.857	-0.788	-29.462	-29.453
1409.60000	-857.365E-3	39.7706	-29.4333	-45.6305	-29.4783	-45.4068	-770.472E-3	64.3118	!	-0.857	-0.770	-29.433	-29.478
1409.70000	-859.321E-3	39.6141	-29.4322	-45.6791	-29.4343	-45.4760	-784.089E-3	64.2591	!	-0.859	-0.784	-29.432	-29.434
1409.80000	-861.170E-3	39.6500	-29.4108	-45.5562	-29.4208	-45.5193	-798.717E-3	64.1957	!	-0.861	-0.799	-29.411	-29.421
1409.90000	-869.182E-3	39.6587	-29.4357	-45.8159	-29.4013	-45.7556	-789.343E-3	64.0582	!	-0.869	-0.789	-29.436	-29.401
1410.00000	-871.283E-3	39.4610	-29.4641	-45.9287	-29.4284	-45.8420	-815.260E-3	64.0517	!	-0.871	-0.815	-29.464	-29.428
1410.10000	-869.110E-3	39.4172	-29.4455	-46.1749	-29.4419	-45.8968	-801.081E-3	63.9838	!	-0.869	-0.801	-29.445	-29.442
1410.20000	-869.628E-3	39.3597	-29.4413	-46.0322	-29.4336	-45.8887	-789.005E-3	63.9717	!	-0.870	-0.789	-29.441	-29.434
1410.30000	-865.494E-3	39.3416	-29.3855	-46.0870	-29.3557	-45.8951	-804.576E-3	63.7867	!	-0.865	-0.805	-29.386	-29.356
1410.40000	-863.761E-3	39.1794	-29.4270	-46.1942	-29.4426	-45.7454	-807.169E-3	63.9450	!	-0.864	-0.807	-29.427	-29.443
1410.50000	-874.164E-3	39.1155	-29.4037	-46.1708	-29.4210	-46.0204	-799.552E-3	63.8694	!	-0.874	-0.800	-29.404	-29.421
1410.60000	-873.210E-3	39.1525	-29.3324	-46.3624	-29.3977	-46.4153	-831.147E-3	63.6221	!	-0.873	-0.831	-29.332	-29.398
1410.70000	-878.643E-3	38.9497	-29.3636	-46.2205	-29.4110	-46.1791	-811.957E-3	63.6046	!	-0.879	-0.812	-29.364	-29.411
1410.80000	-882.502E-3	39.0006	-29.3680	-46.2392	-29.3906	-46.1978	-802.177E-3	63.6292	!	-0.883	-0.802	-29.368	-29.391
1410.90000	-893.575E-3	38.9311	-29.3763	-46.7016	-29.3577	-46.6206	-803.843E-3	63.4892	!	-0.894	-0.804	-29.376	-29.358
1411.00000	-886.641E-3	38.7216	-29.2801	-46.4936	-29.3198	-46.5663	-802.987E-3	63.3707	!	-0.887	-0.803	-29.280	-29.320
1411.10000	-884.151E-3	38.8060	-29.3378	-46.5080	-29.3534	-46.7685	-815.990E-3	63.4620	!	-0.884	-0.816	-29.338	-29.353
1411.20000	-882.958E-3	38.7039	-29.3867	-46.7297	-29.3363	-46.6380	-801.480E-3	63.4321	!	-0.883	-0.801	-29.387	-29.336
1411.30000	-888.911E-3	38.6734	-29.3874	-46.6988	-29.3935	-46.6919	-813.067E-3	63.3932	!	-0.889	-0.813	-29.387	-29.394
1411.40000	-899.797E-3	38.5540	-29.3144	-46.7604	-29.2660	-46.8983	-806.956E-3	63.2224	!	-0.900	-0.807	-29.314	-29.266
1411.50000	-888.836E-3	38.4037	-29.3404	-46.8845	-29.3261	-46.9201	-809.210E-3	63.1028	!	-0.889	-0.809	-29.340	-29.326
1411.60000	-894.767E-3	38.4883	-29.2624	-47.1587	-29.2838	-47.1741	-826.233E-3	63.2090	!	-0.895	-0.826	-29.262	-29.284
1411.70000	-890.642E-3	38.4025	-29.3076	-46.8260	-29.3007	-47.3544	-825.081E-3	62.9469	!	-0.891	-0.825	-29.308	-29.301
1411.80000	-901.387E-3	38.3447	-29.2567	-47.0072	-29.3288	-47.2173	-852.710E-3	63.1396	!	-0.901	-0.853	-29.257	-29.329
1411.90000	-914.224E-3	38.1963	-29.3142	-47.5354	-29.2571	-47.2593	-841.170E-3	62.9751	!	-0.914	-0.841	-29.314	-29.257
1412.00000	-895.634E-3	38.2833	-29.2508	-47.0094	-29.2933	-47.2636	-833.665E-3	62.8590	!	-0.896	-0.834	-29.251	-29.293
1412.10000	-921.883E-3	38.1672	-29.3642	-47.4830	-29.3280	-47.2981	-848.374E-3	62.9579	!	-0.922	-0.848	-29.364	-29.328
1412.20000	-929.502E-3	38.0940	-29.2721	-47.0881	-29.3579	-47.2280	-854.359E-3	62.7861	!	-0.930	-0.854	-29.272	-29.358
1412.30000	-925.688E-3	38.0921	-29.2922	-47.1895	-29.2888	-47.4129	-844.167E-3	62.8299	!	-0.926	-0.844	-29.292	-29.289
1412.40000	-925.613E-3	37.9453	-29.2874	-47.3229	-29.3076	-47.2170	-851.166E-3	62.8108	!	-0.926	-0.851	-29.287	-29.308
1412.50000	-947.390E-3	37.9699	-29.3497	-47.4127	-29.2897	-47.6405	-862.380E-3	62.7271	!	-0.947	-0.862	-29.350	-29.290
1412.60000	-929.611E-3	37.8223	-29.2703	-47.8573	-29.2755	-47.2364	-840.803E-3	62.6712	!	-0.930	-0.841	-29.270	-29.276
1412.70000	-917.229E-3	37.8139	-29.2243	-47.3871	-29.3067	-47.3862	-855.898E-3	62.5958	!	-0.917	-0.856	-29.224	-29.307
1412.80000	-937.916E-3	37.8164	-29.2778	-47.6924	-29.2673	-47.4169	-855.588E-3	62.5305	!	-0.938	-0.856	-29.278	-29.267
1412.90000	-920.943E-3	37.7474	-29.3066	-47.5718	-29.2905	-47.6061	-878.466E-3	62.5421	!	-0.921	-0.878	-29.307	-29.291
1413.00000	-958.233E-3	37.6939	-29.2632	-47.6350	-29.2936	-47.7481	-864.066E-3	62.5046	!	-0.958	-0.864	-29.263	-29.294
1413.10000	-944.965E-3	37.5778	-29.2675	-47.5253	-29.2916	-47.4191	-882.076E-3	62.5529	!	-0.945	-0.882	-29.267	-29.292
1413.20000	-962.580E-3	37.5260	-29.2276	-47.7588	-29.2545	-47.4864	-858.134E-3	62.5560	!	-0.963	-0.858	-29.228	-29.255
1413.30000	-943.190E-3	37.5253	-29.2365	-47.5809	-29.2891	-47.7585	-858.150E-3	62.4362	!	-0.943	-0.858	-29.236	-29.289
1413.40000	-951.321E-3	37.5120	-29.3150	-47.7879	-29.2779	-48.0207	-865.757E-3	62.3886	!	-0.951	-0.866	-29.315	-29.278
1413.50000	-952.905E-3	37.5543	-29.3169	-47.6331	-29.2077	-47.8836	-860.904E-3	62.3552	!	-0.953	-0.861	-29.317	-29.208
1413.60000	-955.724E-3	37.4959	-29.2356	-47.8030	-29.2357	-47.6886	-858.005E-3	62.4197	!	-0.956	-0.858	-29.236	-29.236
1413.70000	-962.377E-3	37.4793	-29.2108	-47.8490	-29.2806	-47.6144	-875.286E-3	62.4135	!	-0.962	-0.875	-29.211	-29.281
1413.80000	-969.254E-3	37.3824	-29.2388	-47.8412	-29.2572	-48.2256	-881.437E-3	62.2691	!	-0.969	-0.881	-29.239	-29.257
1413.90000	-957.506E-3	37.4149	-29.2477	-47.7975	-29.2004	-47.7875	-865.338E-3	62.2676	!	-0.958	-0.865	-29.248	-29.200
1414.00000	-980.769E-3	37.3841	-29.1935	-47.9393	-29.2124	-47.3791	-864.760E-3	62.2123	!	-0.981	-0.865	-29.194	-29.212
1414.10000	-974.458E-3	37.3041	-29.2520	-47.6819	-29.2170	-47.6393	-868.839E-3	62.2072	!	-0.974	-0.869	-29.252	-29.217
1414.20000	-972.723E-3	37.2708	-29.2047	-47.4278	-29.2298	-47.7313	-859.256E-3	62.2684	!	-0.973	-0.859	-29.205	-29.230
1414.30000	-963.450E-3	37.2317	-29.2209	-47.4863	-29.1642	-47.6420	-847.599E-3	62.1698	!	-0.963	-0.848	-29.221	-29.164
1414.40000	-954.025E-3	37.2251	-29.2062	-48.0832	-29.2059	-47.7108	-849.296E-3	62.2059	!	-0.954	-0.849	-29.206	-29.206
1414.50000	-960.815E-3	37.2604	-29.2087	-47.7671	-29.1673	-47.3827	-853.289E-3	62.1370	!	-0.961	-0.853	-29.209	-29.167
1414.60000	-956.954E-3	37.1588	-29.1456	-47.3872	-29.1955	-47.7968	-850.664E-3	62.0196	!	-0.957	-0.851	-29.146	-29.196
1414.70000	-967.581E-3	37.1177	-29.1444	-47.6973	-29.1497	-47.6963	-830.415E-3	61.9615	!	-0.968	-0.830	-29.144	-29.150
1414.80000	-959.905E-3	36.9552	-29.1818	-47.9666	-29.1110	-47.7523	-850.167E-3	62.0117	!	-0.960	-0.850	-29.182	-29.111
1414.90000	-936.997E-3	36.9720	-29.1269	-47.7308	-29.1183	-47.8189	-833.878E-3	61.7937	!	-0.937	-0.834	-29.127	-29.118
1415.00000	-937.459E-3	36.9210	-29.1273	-48.2164	-29.1482	-47.9530	-837.876E-3	61.8147	!	-0.937	-0.838	-29.127	-29.148
1415.10000	-944.643E-3	36.8552	-29.1450	-47.9850	-29.0586	-47.9245	-831.151E-3	61.6552	!	-0.945	-0.831	-29.145	-29.059
1415.20000	-934.821E-3	36.8541	-29.1062	-47.7624	-29.0618	-47.5865	-824.482E-3	61.6668	!	-0.935	-0.824	-29.106	-29.062
1415.30000	-934.777E-3	36.8021	-29.1280	-48.4178	-29.0351	-47.9442	-816.274E-3	61.6577	!	-0.935	-0.816	-29.128	-29.035
1415.40000	-921.503E-3	36.6929	-29.0800	-48.2336	-29.1166	-47.9397	-824.103E-3	61.4817	!	-0.922	-0.824	-29.080	-29.117
1415.50000	-926.120E-3	36.6350	-29.0805	-47.9572	-29.1060	-48.1623	-828.193E-3	61.5792	!	-0.926	-0.828	-29.081	-29.106
1415.60000	-909.619E-3	36.6382	-29.0297	-48.2063	-29.0279	-47.8621	-820.877E-3	61.4769	!	-0.910	-0.821	-29.030	-29.028
1415.70000	-925.883E-3	36.6018	-29.1475	-48.0579	-29.0910	-48.0270	-831.886E-3	61.4330	!	-0.926	-0.832	-29.147	-29.091
1415.80000	-915.006E-3	36.4916	-29.0522	-47.9617	-29.0360	-47.8396	-820.611E-3	61.3239	!	-0.915	-0.821	-29.052	-29.036
1415.90000	-903.832E-3	36.4178	-28.9797	-48.3811	-29.0465	-48.3166	-811.564E-3	61.2878	!	-0.904	-0.812	-28.980	-29.046
1416.00000	-904.207E-3	36.3146	-29.0262	-48.3486	-29.0253	-48.0085	-816.525E-3	61.1442	!	-0.904	-0.817	-29.026	-29.025
1416.10000	-906.987E-3	36.2878	-28.9889	-48.3177	-28.9422	-48.0040	-803.053E-3	61.1037	!	-0.907	-0.803	-28.989	-28.942
