!Mini-Circuits Laboratory
!S-Parameters
!Model: PMA-545G2+
!Run / Lot / Date Code: N/A / N/A / NA
!Fixture: NA; TEST BOARD: TB-607+
!AUTO PORT EXTENSION DONE: PORT<1>=120.99ps; PORT<2>=143.047ps
!Network Analyzer: PNA-X N5242A - 423 4 ports;  Serial number: 71256
!Date: 1/11/2011
!S/N: Unit# 3
!
# Hz  S  dB  R  50
!Frequency    S11 dB        S11 Deg       S21 dB        S21 Deg       S12 dB        S12 Deg       S22 dB        S22 Deg       
700000000     -13.0131903   -59.1941605   31.5118408    -22.2298298   -62.1461105   117.4396973   -18.3618698   -162.7861938  
705000000     -12.9713602   -59.7374382   31.4960594    -23.0172596   -64.4798279   127.9073029   -18.3339405   -162.6408997  
710000000     -12.9071198   -60.3089981   31.4908905    -23.7572899   -68.3226776   127.8423004   -18.3257103   -162.4196014  
715000000     -12.8446598   -60.8612709   31.4769192    -24.4965801   -69.0235138   161.4931946   -18.3067398   -162.1912994  
720000000     -12.8067503   -61.4343300   31.4641991    -25.2184601   -65.4513474   117.2669983   -18.2910805   -162.1031036  
725000000     -12.7633600   -62.0649490   31.4549103    -25.9671593   -62.5298805   143.1172028   -18.3319492   -161.7812042  
730000000     -12.7224798   -62.5886002   31.4438992    -26.6749096   -71.0834808   147.4524994   -18.2728901   -161.8941956  
735000000     -12.6722403   -63.3531494   31.4301701    -27.3968601   -63.5276413   107.3657990   -18.2581692   -161.7003021  
740000000     -12.6407299   -63.7943802   31.4181004    -28.1140995   -61.7906685   144.1822052   -18.2821598   -161.5086975  
745000000     -12.6036797   -64.4429626   31.4106903    -28.8118992   -63.8548889   138.4591980   -18.2733192   -161.2698975  
750000000     -12.5513697   -65.0146713   31.4004803    -29.5210609   -63.4929886   149.7837067   -18.2714100   -161.0904999  
755000000     -12.5408201   -65.6393280   31.3893700    -30.2426701   -65.2643509   117.3757019   -18.2514496   -161.0899963  
760000000     -12.4914999   -66.2702637   31.3823299    -30.9319401   -61.4617996   130.4808960   -18.2210999   -160.9515991  
765000000     -12.4694004   -66.7543182   31.3687992    -31.6059704   -66.8528366   129.8157959   -18.2369404   -160.7807007  
770000000     -12.4185400   -67.4283371   31.3610497    -32.3067093   -62.8385201   117.6700974   -18.2526398   -160.5903931  
775000000     -12.3960199   -68.1034622   31.3505497    -32.9967117   -64.5636520   118.9868011   -18.2276402   -160.3984070  
780000000     -12.3681402   -68.5542908   31.3384399    -33.6726608   -65.0183029   153.0402069   -18.1932907   -160.4949951  
785000000     -12.3495302   -69.0557098   31.3299999    -34.3371391   -61.9298782   148.5939026   -18.2212601   -160.2469025  
790000000     -12.3219805   -69.6845627   31.3223991    -35.0146217   -64.3967590   121.7751999   -18.2073498   -160.0758972  
795000000     -12.3049698   -70.3065491   31.3092098    -35.6910019   -64.6605072   111.1500015   -18.2189598   -159.9922943  
800000000     -12.2561598   -70.8116913   31.3080597    -36.3307610   -63.9350815   120.9504013   -18.2108402   -159.4528961  
805000000     -12.2368202   -71.4704132   31.3051395    -36.9763489   -64.0986176   144.5682068   -18.2146397   -159.3834991  
810000000     -12.2285700   -72.0194931   31.2909203    -37.6799088   -64.6884308   150.9976959   -18.1903095   -159.2122040  
815000000     -12.1983099   -72.6809311   31.2833405    -38.3503799   -63.5868988   140.2129059   -18.1840000   -159.1470032  
820000000     -12.1927299   -73.2534332   31.2773800    -39.0004387   -63.7047997   139.6809998   -18.1720409   -159.2075958  
825000000     -12.1794395   -73.7861176   31.2655602    -39.6487198   -62.9424286   120.6895981   -18.1895905   -159.0953979  
830000000     -12.1570396   -74.3480682   31.2613201    -40.3021584   -64.6793289   97.1475067    -18.1906796   -158.6631012  
835000000     -12.1648703   -74.8249207   31.2527809    -40.9478912   -63.3766708   135.7095947   -18.1621609   -158.6958008  
840000000     -12.1297903   -75.4493332   31.2458992    -41.6018791   -63.4200287   144.3775940   -18.1637897   -158.5296936  
845000000     -12.1254997   -76.1401520   31.2379608    -42.2343216   -61.7960701   123.8757019   -18.1336594   -158.4017944  
850000000     -12.1259699   -76.5859375   31.2327499    -42.8946686   -62.8372917   130.8439941   -18.1375904   -158.3603973  
855000000     -12.0909100   -77.3034210   31.2250595    -43.5419998   -61.8285408   117.2571030   -18.1155396   -158.1884003  
860000000     -12.0774698   -77.9304810   31.2196808    -44.1733704   -60.6633301   110.6586990   -18.0920792   -158.0758972  
865000000     -12.0747204   -78.3696518   31.2123604    -44.7960014   -61.8796196   136.7210999   -18.1244202   -157.8047943  
870000000     -12.0495701   -78.9470520   31.2075996    -45.4147911   -63.0361404   118.8305969   -18.1148701   -157.5984955  
875000000     -12.0468502   -79.4744034   31.1985207    -46.0640602   -63.3522797   131.9568024   -18.1190109   -157.6309967  
880000000     -12.0490904   -80.1032410   31.1919804    -46.7086411   -64.4521790   126.8338013   -18.1089306   -157.4680939  
885000000     -12.0423203   -80.6570587   31.1879501    -47.3419914   -60.8824196   133.3798981   -18.0685291   -157.2471924  
890000000     -12.0287600   -81.2751465   31.1827393    -47.9562492   -60.5735092   130.1237946   -18.0749493   -157.1602020  
895000000     -12.0109901   -81.7512436   31.1725407    -48.5982094   -61.0059509   133.3123932   -18.0698605   -157.1766968  
900000000     -12.0218000   -82.3248825   31.1661491    -49.1996994   -61.0632019   124.4736023   -18.0859108   -156.8755951  
905000000     -12.0021496   -82.8979263   31.1602802    -49.8420906   -61.1212502   108.9649963   -18.0667191   -156.6184998  
910000000     -12.0133896   -83.4841232   31.1608696    -50.4387817   -61.1850700   137.8533936   -18.0354500   -156.6015015  
915000000     -12.0049000   -84.0092697   31.1494198    -51.0905495   -62.0076103   127.6876984   -18.0341702   -156.3289032  
920000000     -11.9911804   -84.6513977   31.1470108    -51.6903000   -63.1691818   131.3334045   -18.0467606   -156.5509949  
925000000     -11.9842901   -85.3026581   31.1407394    -52.3009682   -64.1713181   108.0751038   -18.0271206   -156.1515045  
930000000     -11.9627705   -85.7366714   31.1364594    -52.9253693   -59.8288994   140.9956055   -18.0267506   -155.8721924  
935000000     -11.9892702   -86.1774826   31.1301098    -53.5071297   -65.1405869   141.1878052   -18.0283794   -155.9098053  
940000000     -11.9906998   -86.8339005   31.1250401    -54.1783600   -61.3842392   141.0442963   -17.9981995   -155.6963043  
945000000     -11.9809303   -87.3667297   31.1177902    -54.7798996   -62.6200905   130.1763000   -17.9988098   -155.7579956  
950000000     -11.9796104   -87.9976578   31.1138401    -55.3799210   -61.8543091   130.5372925   -17.9873199   -155.5845032  
955000000     -11.9743299   -88.6783829   31.1085606    -56.0021706   -61.9880486   132.4488983   -17.9745808   -155.4862061  
960000000     -11.9840002   -89.0638123   31.1001892    -56.6002197   -61.0315895   128.3179932   -17.9968204   -155.4631958  
965000000     -11.9739904   -89.7331238   31.0970402    -57.2211990   -59.8942108   135.4277954   -17.9789391   -155.3609009  
970000000     -11.9823599   -90.1933212   31.0927391    -57.8100014   -62.6872902   134.5767059   -17.9891796   -155.2734070  
975000000     -11.9839602   -90.8130875   31.0839500    -58.4328384   -63.0995102   117.8628998   -17.9621391   -155.1107941  
980000000     -11.9741697   -91.2658768   31.0805092    -59.0138397   -59.3867302   133.6571960   -17.9352207   -154.9309998  
985000000     -11.9896002   -91.8056564   31.0779209    -59.6467400   -62.3570900   138.7704010   -17.9573708   -154.9237976  
990000000     -11.9816399   -92.5354691   31.0725098    -60.2212715   -60.0373192   120.8702011   -17.9065704   -154.7942047  
995000000     -11.9884005   -92.9960403   31.0712395    -60.8340111   -60.6431084   130.5944061   -17.8964291   -154.5930023  
1000000000    -11.9955502   -93.5997162   31.0621891    -61.4470482   -59.4036293   128.6450958   -17.8816204   -154.4821930  
1005000000    -11.9926300   -94.0139465   31.0582504    -62.0516396   -62.2027397   131.3361969   -17.8964195   -154.4866943  
1010000000    -12.0066204   -94.6531372   31.0550404    -62.6424599   -60.1765709   121.2279968   -17.8888893   -154.3921051  
1015000000    -12.0025702   -95.1993103   31.0446091    -63.2468300   -60.9724808   137.4804993   -17.8667908   -154.2675934  
1020000000    -12.0162096   -95.7701874   31.0437698    -63.8484192   -62.2055893   134.9940948   -17.8726807   -154.2451935  
1025000000    -12.0076103   -96.3056107   31.0378895    -64.4305267   -61.1376610   127.1370010   -17.8543491   -154.2418060  
1030000000    -12.0105801   -96.8440170   31.0304794    -65.0524902   -59.8625793   125.2957993   -17.8078194   -154.3527069  
1035000000    -12.0178204   -97.4107285   31.0322495    -65.6407776   -59.8226509   127.6735992   -17.8070908   -154.1159058  
1040000000    -12.0232096   -97.8676376   31.0243301    -66.2288818   -59.7074890   133.9812927   -17.8208199   -154.1708984  
1045000000    -12.0286102   -98.5448532   31.0179100    -66.8341370   -59.0228119   130.0117950   -17.7887592   -154.1306000  
1050000000    -12.0366001   -98.9391022   31.0129604    -67.4138718   -60.3670692   136.7872925   -17.8010406   -153.7870941  
1055000000    -12.0344496   -99.4898834   31.0081406    -68.0322113   -60.7565308   137.7496948   -17.7917995   -153.9631958  
1060000000    -12.0560799   -100.0995026  31.0020008    -68.6119080   -59.4064102   135.1931000   -17.7618599   -153.8921051  
1065000000    -12.0526800   -100.6074982  30.9961891    -69.2001495   -59.3056183   134.2225952   -17.7462101   -153.8067017  
1070000000    -12.0715504   -101.1405029  30.9938602    -69.8102417   -61.4929886   122.9377975   -17.7622890   -153.8237000  
1075000000    -12.0661001   -101.6580963  30.9877396    -70.4064865   -60.2739105   129.4187927   -17.7432995   -153.8119965  
1080000000    -12.0926199   -102.1321030  30.9812107    -70.9924164   -58.4062195   122.8762970   -17.7070808   -153.8524017  
1085000000    -12.1021299   -102.7117996  30.9778404    -71.5886536   -60.6654091   132.8672943   -17.7184200   -153.6315002  
1090000000    -12.1155100   -103.2796021  30.9762096    -72.1841888   -59.8987389   132.2451019   -17.6913109   -153.7953033  
1095000000    -12.1261902   -103.8771973  30.9674892    -72.7798462   -61.7482109   128.7369995   -17.6609993   -153.6092987  
1100000000    -12.1240597   -104.2751007  30.9626904    -73.3646317   -63.7064705   125.2344971   -17.6479797   -153.6240997  
1105000000    -12.1359100   -104.9083023  30.9598408    -73.9856262   -58.9857483   127.4698029   -17.6488800   -153.8459015  
1110000000    -12.1372299   -105.4023972  30.9520092    -74.5625305   -57.5617599   126.9283981   -17.6339607   -153.5908966  
1115000000    -12.1468496   -105.8425980  30.9481506    -75.1378098   -59.3444405   117.6156006   -17.6544094   -153.7601013  
1120000000    -12.1616602   -106.3992996  30.9409504    -75.7510529   -59.4117508   121.0249023   -17.6478996   -153.8260040  
1125000000    -12.1650801   -106.8272018  30.9345703    -76.3293533   -56.4859886   122.5787964   -17.6134605   -153.7503052  
1130000000    -12.1607103   -107.4131012  30.9332695    -76.9162903   -57.3288498   136.0610046   -17.6115608   -153.2274017  
1135000000    -12.1779299   -108.0659027  30.9311790    -77.5170364   -59.4427910   136.8878021   -17.5740299   -153.3934021  
1140000000    -12.1847000   -108.5801010  30.9256992    -78.1270676   -59.5086517   139.6958008   -17.5513000   -153.5657043  
1145000000    -12.2069197   -109.0484009  30.9164791    -78.7243271   -60.9663315   126.4130020   -17.5515804   -153.6011047  
1150000000    -12.2440701   -109.7186966  30.9077702    -79.3240433   -58.5330009   110.4926987   -17.5662308   -153.9617004  
1155000000    -12.2504797   -110.1557007  30.9036293    -79.9134064   -58.6825409   121.6687012   -17.5182590   -153.9071045  
1160000000    -12.2604799   -110.7406006  30.8949509    -80.5073166   -57.5856514   124.6063995   -17.5116196   -153.9024963  
1165000000    -12.2453098   -111.2491989  30.8887291    -81.1083298   -61.1136017   129.9815979   -17.4772797   -153.8739929  
1170000000    -12.2938004   -111.6313019  30.8812294    -81.7119827   -58.3605194   116.2767029   -17.5083294   -154.0158997  
1175000000    -12.2934198   -112.2577972  30.8747196    -82.3034363   -58.6175804   127.2380981   -17.4871197   -154.0596924  
1180000000    -12.3184605   -112.7251968  30.8689594    -82.8929901   -58.7890892   122.6361008   -17.4795303   -154.1387024  
1185000000    -12.3321695   -113.1836014  30.8642693    -83.4678268   -58.8228989   127.1444016   -17.4686508   -154.1127014  
1190000000    -12.3421402   -113.8377991  30.8575401    -84.0733566   -59.4827194   126.8139038   -17.4592609   -154.2908020  
1195000000    -12.3566504   -114.2515030  30.8508091    -84.6697083   -58.2751999   119.5994034   -17.4468594   -154.3643951  
1200000000    -12.3575802   -114.7443008  30.8441200    -85.2524033   -56.3723717   130.2006073   -17.4149094   -154.3385925  
1205000000    -12.3875399   -115.2384033  30.8380394    -85.8549423   -58.1100807   127.0925980   -17.4266205   -154.4788055  
1210000000    -12.4176798   -115.7598038  30.8295994    -86.4643173   -59.7321091   121.6293030   -17.4192905   -154.6907959  
1215000000    -12.4287796   -116.1999969  30.8240108    -87.0767212   -59.0047989   124.4135971   -17.4091702   -154.7911987  
1220000000    -12.4382296   -116.9176025  30.8119297    -87.6582184   -56.2625999   118.4792023   -17.3949509   -155.1087036  
1225000000    -12.4533901   -117.2941971  30.8055305    -88.2629318   -57.5696716   125.9359970   -17.3903294   -154.8936005  
1230000000    -12.4686403   -117.8106995  30.7972908    -88.8605423   -58.9375801   122.5105972   -17.3782291   -155.0789948  
1235000000    -12.4895802   -118.3302002  30.7900791    -89.4294510   -58.1517296   120.5299988   -17.3873806   -155.2868958  
1240000000    -12.4872398   -118.8861008  30.7835598    -90.0237579   -59.4376717   133.0615997   -17.3587608   -155.4066925  
1245000000    -12.5240297   -119.3464966  30.7772999    -90.6190338   -57.9460411   122.7305984   -17.3529491   -155.4454041  
1250000000    -12.5354605   -119.7931976  30.7685108    -91.2115784   -56.9362602   123.3938980   -17.3552704   -155.6188049  
1255000000    -12.5589504   -120.1817017  30.7581291    -91.8180313   -57.4671211   115.6175003   -17.3543892   -155.6849976  
1260000000    -12.5719995   -120.7507019  30.7489796    -92.4072876   -56.0762901   124.7498016   -17.3384209   -155.9602966  
1265000000    -12.6068401   -121.2733994  30.7399998    -92.9823685   -56.4526291   129.0317993   -17.3690491   -156.1457977  
1270000000    -12.6070604   -121.6205978  30.7354908    -93.5811462   -57.5108604   112.8245010   -17.3456306   -156.0054016  
1275000000    -12.5851603   -122.2493973  30.7299900    -94.1815338   -57.0219994   128.6661987   -17.2804394   -156.2893066  
1280000000    -12.6299400   -122.9092026  30.7182999    -94.8151474   -56.4713707   130.6797028   -17.2744808   -156.6708984  
1285000000    -12.6739597   -123.3612976  30.7064991    -95.3885880   -56.9452400   129.1481934   -17.2900696   -156.9293976  
1290000000    -12.7046604   -123.7717972  30.6952095    -95.9902191   -57.1709900   115.6325989   -17.2898197   -157.1472015  
1295000000    -12.7280703   -124.2888031  30.6852207    -96.5838394   -56.9342194   114.8180008   -17.3201408   -157.5213013  
1300000000    -12.7292004   -124.7091980  30.6759109    -97.1919708   -55.3339691   126.0709991   -17.2515602   -157.4817963  
1305000000    -12.7684298   -125.2710037  30.6672897    -97.7766876   -56.4381905   113.8401031   -17.2997208   -157.8578949  
1310000000    -12.7806396   -125.7067032  30.6564693    -98.3943863   -56.7092400   121.3870010   -17.2654400   -158.1217041  
1315000000    -12.8091497   -126.1708984  30.6459999    -98.9610672   -57.7831497   116.7219009   -17.3083591   -158.1221008  
1320000000    -12.8278503   -126.5490036  30.6349392    -99.5511932   -57.0864487   123.9395981   -17.2875710   -158.5261993  
1325000000    -12.8648100   -127.0155029  30.6242294    -100.1600037  -55.3949013   112.3973007   -17.2930603   -158.8070984  
1330000000    -12.8752699   -127.5792999  30.6128292    -100.7521973  -56.6998901   116.0733032   -17.2870197   -158.7487946  
1335000000    -12.9081402   -128.0659943  30.6026802    -101.3410034  -56.1942406   122.1738968   -17.2726097   -159.0962067  
1340000000    -12.9234896   -128.4855042  30.5946693    -101.9421005  -56.5841904   128.4219971   -17.2509708   -159.3457947  
1345000000    -12.9329796   -128.9848938  30.5846901    -102.5365982  -56.5519905   123.8973007   -17.2379208   -159.6744995  
1350000000    -12.9472303   -129.5901947  30.5696602    -103.1547012  -55.1053391   121.8566971   -17.2506809   -160.1036072  
1355000000    -12.9849396   -130.0789032  30.5592804    -103.7586975  -55.3554192   116.1642990   -17.2525597   -160.4523926  
1360000000    -13.0166101   -130.5312958  30.5445004    -104.3496017  -57.1486206   116.5244980   -17.2722492   -160.8292999  
1365000000    -13.0461798   -130.9593964  30.5341091    -104.9317017  -55.2602997   120.5917969   -17.2670898   -160.7633972  
1370000000    -13.0756998   -131.4425964  30.5188808    -105.5328979  -56.0888710   120.4580994   -17.2836399   -161.2342072  
1375000000    -13.1007700   -131.7799988  30.5109100    -106.1399002  -57.0311890   118.5245972   -17.2909794   -161.5191040  
1380000000    -13.1291904   -132.2037048  30.4970894    -106.7128983  -56.3224983   118.2931976   -17.2992496   -161.8108978  
1385000000    -13.1696301   -132.7617950  30.4856606    -107.3380966  -55.8739586   110.5346985   -17.3075809   -162.2252045  
1390000000    -13.1928997   -133.3150024  30.4688091    -107.9290009  -55.4744911   117.0673981   -17.2908401   -162.5933990  
1395000000    -13.2048798   -133.7837982  30.4585800    -108.5482025  -55.7120018   116.9288025   -17.2896996   -162.7180023  
1400000000    -13.2270203   -134.1549988  30.4438305    -109.1313019  -54.9692001   113.8615036   -17.3168602   -163.1990051  
1405000000    -13.2666302   -134.6522064  30.4287205    -109.6977005  -55.0262184   121.2660980   -17.3134995   -163.5216064  
1410000000    -13.2966499   -134.9990997  30.4131107    -110.3123016  -56.7993317   116.3953018   -17.2971592   -163.8421021  
1415000000    -13.3218603   -135.5193024  30.4018707    -110.9010010  -55.7638206   119.0574036   -17.3321705   -164.0184021  
1420000000    -13.3572903   -135.8466034  30.3853703    -111.5102005  -56.0940094   114.8760986   -17.3395901   -164.4776001  
1425000000    -13.3840399   -136.4456024  30.3696194    -112.1026001  -55.4237404   112.9901962   -17.3450203   -164.8247070  
1430000000    -13.4343204   -136.8041992  30.3553104    -112.6949005  -54.7517586   117.9589996   -17.3648701   -165.2342987  
1435000000    -13.4324598   -137.2687988  30.3419209    -113.2894974  -56.1595192   107.6964035   -17.3698006   -165.7091064  
1440000000    -13.4843702   -137.5951996  30.3257599    -113.8921967  -54.3477783   115.8119965   -17.3595200   -166.0003052  
1445000000    -13.5083399   -138.1949005  30.3125000    -114.4787979  -55.9683495   118.1451035   -17.3566093   -166.4467926  
1450000000    -13.5262804   -138.4140930  30.2937698    -115.0838013  -54.7313194   110.0733032   -17.3777504   -166.9512939  
1455000000    -13.5752001   -138.9618073  30.2790203    -115.7029037  -54.6415215   119.1603012   -17.4066505   -167.2303009  
