!Mini-Circuits Laboratory
!S-Parameters
!Model: PMA-545G2+
!Run / Lot / Date Code: N/A / N/A / NA
!Fixture: NA; TEST BOARD: TB-607+
!AUTO PORT EXTENSION DONE: PORT<1>=120.99ps; PORT<2>=143.047ps
!Network Analyzer: PNA-X N5242A - 423 4 ports;  Serial number: 71256
!Date: 1/11/2011
!S/N: Unit# 3
!
# Hz  S  dB  R  50
!Frequency    S11 dB        S11 Deg       S21 dB        S21 Deg       S12 dB        S12 Deg       S22 dB        S22 Deg        
700000000     -11.4097605   -60.7127686   30.7594204    -22.1401691   -63.3902283   142.4792023   -20.3281898   -147.0155945  
705000000     -11.3846798   -61.1781311   30.7441692    -22.8973007   -67.1765137   130.6345978   -20.2608509   -146.6170959  
710000000     -11.3324299   -61.8280907   30.7376003    -23.6179905   -64.1593475   130.9091949   -20.2378292   -146.4915009  
715000000     -11.3002100   -62.0939789   30.7216702    -24.3295307   -64.8344727   157.0063934   -20.2197704   -146.2572937  
720000000     -11.2594805   -62.6915703   30.7076397    -25.0410004   -62.9114113   142.6219025   -20.2114792   -145.9499054  
725000000     -11.2250004   -63.1926193   30.6953201    -25.7485695   -62.3732986   127.1763992   -20.1678696   -145.4801941  
730000000     -11.1976805   -63.6355896   30.6858902    -26.4383392   -63.7141418   146.8058929   -20.1475506   -145.3444977  
735000000     -11.1683598   -64.2517395   30.6714706    -27.1323605   -66.3243332   140.0666046   -20.0989704   -145.2810059  
740000000     -11.1438503   -64.6077728   30.6576500    -27.8279209   -63.5017509   157.8470001   -20.1187897   -145.0121002  
745000000     -11.1125698   -65.1483383   30.6509609    -28.5022602   -63.8213310   140.1598969   -20.0573101   -144.6732025  
750000000     -11.0765400   -65.5639801   30.6407299    -29.1972198   -65.9113235   149.8968048   -20.0346699   -144.3759003  
755000000     -11.0681000   -66.2617722   30.6294899    -29.8978596   -65.6610718   114.5784988   -19.9960899   -143.9862061  
760000000     -11.0528202   -66.6268997   30.6194897    -30.5620804   -66.2106705   125.9126968   -19.9658604   -143.7886047  
765000000     -11.0179396   -67.1458435   30.6079006    -31.2122803   -63.0565491   127.0269012   -19.9190006   -143.6976013  
770000000     -10.9840498   -67.6536102   30.5977497    -31.9036198   -64.6329498   102.2891998   -19.9318810   -143.2124939  
775000000     -10.9670200   -68.1491623   30.5877895    -32.5566711   -65.2773666   152.5193024   -19.8760796   -143.0294037  
780000000     -10.9482698   -68.6106262   30.5742798    -33.2027283   -66.1685867   119.7889023   -19.8441296   -142.9002075  
785000000     -10.9340096   -69.0399628   30.5675697    -33.8530998   -62.9175186   138.9143066   -19.8408203   -142.5639038  
790000000     -10.9126196   -69.5764618   30.5606594    -34.5104103   -63.1118011   154.7503052   -19.8402901   -142.2973938  
795000000     -10.9097500   -70.1200027   30.5484295    -35.1764183   -61.8866615   149.2256927   -19.8418198   -141.9662933  
800000000     -10.8841400   -70.5242233   30.5416603    -35.8233604   -64.0004272   142.9508972   -19.8558006   -141.7433014  
805000000     -10.8448801   -71.0940781   30.5414791    -36.4069290   -62.9042091   117.1440964   -19.7492104   -141.3018036  
810000000     -10.8504496   -71.5620270   30.5295906    -37.1086998   -63.9241104   130.2160950   -19.7522602   -141.3628998  
815000000     -10.8497105   -72.1254272   30.5202007    -37.7529106   -62.9674301   100.6706009   -19.7430496   -141.2637939  
820000000     -10.8429003   -72.6128235   30.5159206    -38.3930893   -61.3610992   133.5030060   -19.7157898   -141.0677948  
825000000     -10.8324299   -73.0674210   30.5021000    -39.0142899   -60.4935989   128.2994995   -19.6982403   -140.9095001  
830000000     -10.8135004   -73.5355377   30.4992599    -39.6581612   -63.9577599   140.8910065   -19.6820698   -140.6497955  
835000000     -10.8268003   -74.0500870   30.4886894    -40.2834091   -63.8565712   115.8432007   -19.6397095   -140.3197021  
840000000     -10.8064203   -74.4743729   30.4841900    -40.9182205   -63.4337502   137.6338043   -19.6276207   -140.1519012  
845000000     -10.8119097   -75.0434418   30.4762192    -41.5381813   -61.9955788   117.6423035   -19.5746803   -139.8860016  
850000000     -10.8069897   -75.4692993   30.4715309    -42.1717300   -61.9851608   128.6705017   -19.5499001   -139.7129059  
855000000     -10.7953501   -76.0524826   30.4647408    -42.8027000   -63.5080299   140.9855957   -19.5405102   -139.5261993  
860000000     -10.7938004   -76.5337524   30.4586792    -43.4204712   -62.6807518   139.3683014   -19.5238400   -139.2613068  
865000000     -10.7834196   -76.9698105   30.4531593    -44.0315399   -62.0139809   139.2911987   -19.5030994   -139.0173035  
870000000     -10.7721701   -77.5631866   30.4473000    -44.6330490   -63.3351097   117.9816971   -19.4734402   -138.7113037  
875000000     -10.7781601   -78.0283813   30.4389992    -45.2800789   -61.3600082   129.8764038   -19.4484692   -138.7059021  
880000000     -10.7738199   -78.5772934   30.4346600    -45.8994789   -61.7905693   132.8601990   -19.4181099   -138.4987030  
885000000     -10.7719498   -78.9448929   30.4311295    -46.5193100   -66.1382675   130.9207001   -19.4001598   -138.1797028  
890000000     -10.7679701   -79.5237732   30.4249897    -47.1238899   -63.6174812   141.9725037   -19.3919697   -138.2268066  
895000000     -10.7693100   -79.9995575   30.4146309    -47.7526817   -59.6763611   133.0133057   -19.3761196   -138.2776947  
900000000     -10.7650499   -80.6450272   30.4084396    -48.3550606   -61.1742897   152.0240021   -19.3232193   -138.2451935  
905000000     -10.7821703   -81.0597534   30.4034996    -48.9646606   -61.3706894   152.7951050   -19.3371906   -137.9205933  
910000000     -10.7848501   -81.5256424   30.4039497    -49.5393715   -61.8187790   150.1069031   -19.2824306   -137.6967926  
915000000     -10.7793398   -81.9570236   30.3910503    -50.1815109   -61.4972115   123.5580978   -19.2299099   -137.4954987  
920000000     -10.7688103   -82.4767838   30.3894501    -50.7749405   -61.8575211   130.7174072   -19.2529392   -137.4868011  
925000000     -10.7788601   -83.0341263   30.3828793    -51.3808708   -61.2286186   123.3914032   -19.1847591   -137.1990051  
930000000     -10.7729702   -83.4673309   30.3786907    -51.9798393   -62.5302582   138.5321045   -19.2004910   -137.0872040  
935000000     -10.7830601   -84.0261230   30.3737106    -52.5631790   -60.7601585   124.2715988   -19.1545792   -137.1257019  
940000000     -10.7816296   -84.5105362   30.3684502    -53.2220001   -60.0856400   136.1929932   -19.1088696   -136.9447021  
945000000     -10.7946997   -84.9253693   30.3610706    -53.8010712   -63.1044617   129.0505981   -19.0939007   -136.7897949  
950000000     -10.7943697   -85.5450974   30.3585701    -54.3835182   -60.3461800   134.8692017   -19.0716095   -136.5635986  
955000000     -10.8033800   -86.0753937   30.3530293    -54.9911804   -60.9417000   140.1412048   -19.0201206   -136.5498962  
960000000     -10.8116999   -86.5068130   30.3456192    -55.5689507   -62.5788116   122.5273972   -19.0410404   -136.2814026  
965000000     -10.8103704   -86.9802322   30.3426399    -56.1841698   -61.5231895   133.1372070   -18.9929008   -136.2277069  
970000000     -10.8163996   -87.3751984   30.3376198    -56.7546387   -61.3806496   140.8370972   -19.0096397   -136.0767059  
975000000     -10.8320599   -87.9520264   30.3300591    -57.3744202   -60.9949799   142.9248047   -18.9877110   -136.2505951  
980000000     -10.8370895   -88.3811188   30.3237896    -57.9517784   -61.3785896   136.6378021   -18.9282494   -136.0677032  
985000000     -10.8418598   -88.8527222   30.3231506    -58.5558281   -61.4857101   146.5413971   -18.9396591   -136.0121002  
990000000     -10.8384199   -89.4756088   30.3185596    -59.1180000   -60.6733093   136.6479034   -18.8925800   -135.9358978  
995000000     -10.8566704   -89.9320068   30.3174095    -59.7291412   -60.0712395   131.4918976   -18.8279400   -135.8872986  
1000000000    -10.8650398   -90.4133072   30.3090401    -60.3211403   -60.4312210   129.8639069   -18.8102798   -135.9842987  
1005000000    -10.8632803   -90.8529968   30.3063107    -60.9146004   -61.9531708   133.0496063   -18.8098602   -135.7102051  
1010000000    -10.8739595   -91.5014420   30.3034801    -61.4957809   -58.8694611   139.4241028   -18.7697105   -135.6515961  
1015000000    -10.8777905   -91.8600235   30.2937794    -62.0829697   -60.2908783   128.2415009   -18.7404194   -135.7651978  
1020000000    -10.8994799   -92.4663391   30.2939396    -62.6753807   -59.0240898   129.6385956   -18.7420807   -135.7158966  
1025000000    -10.8952303   -92.8787537   30.2890892    -63.2491112   -62.2134514   142.2015991   -18.6903591   -135.5576935  
1030000000    -10.9120197   -93.4039230   30.2810593    -63.8602791   -58.9149094   135.5446014   -18.6596909   -135.6768036  
1035000000    -10.9222097   -93.8858414   30.2817993    -64.4387131   -60.0721817   127.3784027   -18.6462002   -135.5303955  
1040000000    -10.9221497   -94.2967682   30.2749691    -65.0285034   -60.1212311   135.3820038   -18.6377602   -135.5948944  
1045000000    -10.9244699   -94.8098221   30.2707691    -65.6013412   -58.9615784   137.5756989   -18.6035099   -135.4902039  
1050000000    -10.9540901   -95.2470627   30.2658501    -66.1862869   -60.9677391   120.0783005   -18.6020908   -135.3273010  
1055000000    -10.9655800   -95.7931290   30.2608891    -66.7852478   -60.5468102   129.8954010   -18.5763206   -135.5644073  
1060000000    -10.9567804   -96.2546768   30.2554302    -67.3637772   -58.7245789   143.8831024   -18.5387897   -135.3464966  
1065000000    -10.9868498   -96.7218170   30.2496490    -67.9438019   -60.5666504   133.0874939   -18.5317307   -135.4732971  
1070000000    -10.9980202   -97.2555313   30.2478809    -68.5407486   -60.1964188   134.5794067   -18.5192509   -135.3582001  
1075000000    -11.0143700   -97.7304535   30.2409401    -69.1395493   -60.0609283   137.3193054   -18.4925098   -135.5417023  
1080000000    -11.0282803   -98.1292496   30.2361603    -69.7129211   -58.7403488   131.8258057   -18.4472408   -135.7852936  
1085000000    -11.0419798   -98.6687775   30.2330799    -70.2933273   -60.5536804   138.4833069   -18.4126701   -135.5505981  
1090000000    -11.0547304   -99.1853867   30.2308197    -70.8812027   -59.0359993   127.2974014   -18.4135094   -135.6777039  
1095000000    -11.0677500   -99.6741791   30.2233906    -71.4729767   -59.3031693   133.4589996   -18.3579903   -135.7733002  
1100000000    -11.0784597   -100.1037979  30.2183990    -72.0438690   -60.9464417   115.7248993   -18.3377304   -135.6221008  
1105000000    -11.0949097   -100.5692978  30.2155609    -72.6575165   -59.7629585   126.4141006   -18.3321991   -135.8914032  
1110000000    -11.0906401   -101.0053024  30.2082596    -73.2245407   -58.3483505   131.2530975   -18.3037605   -135.6990051  
1115000000    -11.1165304   -101.5064011  30.2048492    -73.8005371   -58.3853302   136.7881927   -18.3003006   -135.6315002  
1120000000    -11.1386900   -101.9582977  30.1975994    -74.3941727   -58.7569618   137.1983948   -18.2892895   -135.7442017  
1125000000    -11.1523199   -102.3312988  30.1924191    -74.9790573   -58.2572517   127.4539032   -18.2514706   -135.8984985  
1130000000    -11.1632204   -102.8412018  30.1902103    -75.5556793   -59.4053001   126.3159027   -18.2602596   -135.5697021  
1135000000    -11.1599703   -103.4149017  30.1871700    -76.1310883   -58.4566307   129.4750977   -18.1950207   -135.7677002  
1140000000    -11.1746702   -103.9386978  30.1849003    -76.7362900   -57.8589401   125.2694016   -18.1336594   -136.1118927  
1145000000    -11.1938400   -104.3802032  30.1769600    -77.3197174   -58.4417496   132.0433960   -18.1369400   -136.0791931  
1150000000    -11.2175303   -105.0037003  30.1698799    -77.9189606   -57.3133087   126.7117996   -18.1366692   -136.4674072  
1155000000    -11.2335596   -105.3032990  30.1651802    -78.5123672   -59.3394012   132.8078003   -18.0879192   -136.4344025  
1160000000    -11.2414799   -105.7548981  30.1566792    -79.1003876   -59.4411087   132.2444000   -18.1083908   -136.5442963  
1165000000    -11.2825699   -106.2369995  30.1502399    -79.6830063   -58.4066696   124.9318008   -18.1000004   -136.8121033  
1170000000    -11.3067598   -106.6762009  30.1416492    -80.2799530   -57.5667915   119.2105026   -18.0560608   -136.8892975  
1175000000    -11.3226204   -107.2226028  30.1361198    -80.8724823   -57.0056686   129.0043945   -18.0457592   -137.1298981  
1180000000    -11.3353701   -107.7083969  30.1307106    -81.4548035   -57.7833786   125.8827972   -18.0424194   -137.1723022  
1185000000    -11.3530102   -108.1230011  30.1252804    -82.0255814   -58.3840103   129.5960999   -18.0193596   -137.2317047  
1190000000    -11.3677902   -108.6718979  30.1185608    -82.6126099   -58.3969803   130.2158051   -17.9881496   -137.3825073  
1195000000    -11.3843203   -109.0700989  30.1120300    -83.2058868   -58.9786797   118.6302032   -17.9822407   -137.5063934  
1200000000    -11.4125404   -109.4733963  30.1051998    -83.7812729   -57.9576797   130.5032959   -17.9382706   -137.5104980  
1205000000    -11.4405804   -109.9840012  30.0991993    -84.3758469   -58.1089516   124.6896973   -17.9603291   -137.9548035  
1210000000    -11.4597902   -110.4455032  30.0929699    -84.9809036   -58.7122688   123.2240982   -17.9320908   -138.0648956  
1215000000    -11.4862299   -110.9563980  30.0872898    -85.5867691   -56.6119690   117.8905029   -17.9298401   -138.2987061  
1220000000    -11.4808598   -111.4013977  30.0758801    -86.1677399   -57.3377991   133.1412048   -17.9125004   -138.4138031  
1225000000    -11.5011101   -111.7350998  30.0704498    -86.7664032   -59.0791092   114.8414001   -17.9231396   -138.5077057  
1230000000    -11.5408697   -112.3287964  30.0622101    -87.3562088   -56.6971512   126.1123962   -17.8873997   -138.8327026  
1235000000    -11.5582504   -112.8223038  30.0550594    -87.9265976   -56.4645004   128.3932037   -17.8829708   -139.0769043  
1240000000    -11.5678101   -113.2799988  30.0472107    -88.5149765   -57.6019783   134.7447968   -17.8630104   -139.1968994  
1245000000    -11.5841799   -113.6184006  30.0417595    -89.0976486   -57.6378593   125.1597977   -17.8833599   -139.2866058  
1250000000    -11.6112804   -114.1532974  30.0319004    -89.6804428   -58.9737015   128.5149994   -17.8448601   -139.6327057  
1255000000    -11.6315298   -114.5121994  30.0234604    -90.2817230   -57.1431007   129.6750946   -17.8599892   -139.8305969  
1260000000    -11.6593304   -115.0009003  30.0133591    -90.8775406   -56.8441887   122.6857986   -17.8266392   -140.0858002  
1265000000    -11.6952896   -115.4783020  30.0049305    -91.4431915   -57.9128609   121.8901978   -17.8358402   -140.3475037  
1270000000    -11.6995001   -115.9186020  29.9981899    -92.0560532   -56.9486198   130.1658020   -17.8366604   -140.3923035  
1275000000    -11.7077599   -116.2503967  29.9895592    -92.6110916   -57.8014183   124.0036011   -17.7894802   -140.6101990  
1280000000    -11.7263699   -116.9150009  29.9845104    -93.2421265   -56.8445511   125.2146988   -17.7418098   -140.9794006  
1285000000    -11.7772799   -117.3944016  29.9722595    -93.8352127   -56.9856300   121.5059967   -17.7688694   -141.4873962  
1290000000    -11.7977200   -117.6897964  29.9602299    -94.4368820   -56.5367813   129.2436981   -17.7671394   -141.5126038  
1295000000    -11.8256598   -118.1678009  29.9484005    -95.0226364   -56.7289314   130.9004059   -17.7780800   -141.8150024  
1300000000    -11.8383398   -118.5973969  29.9397907    -95.6209564   -58.0800896   132.4871979   -17.7529602   -142.0496979  
1305000000    -11.8728704   -119.0465012  29.9289703    -96.2009430   -59.2061005   125.6143036   -17.7902908   -142.2232056  
1310000000    -11.9117498   -119.4307022  29.9176598    -96.8066864   -57.2355919   123.4284973   -17.7726002   -142.7070007  
1315000000    -11.9268599   -119.9826965  29.9089909    -97.3678131   -56.9037399   128.1952972   -17.7872200   -142.8479004  
1320000000    -11.9516497   -120.3050003  29.8980904    -97.9585114   -56.6555901   121.4205017   -17.7860203   -143.1759949  
1325000000    -11.9855299   -120.7863998  29.8869305    -98.5724106   -56.1403694   119.9502029   -17.7731705   -143.6244049  
1330000000    -12.0212297   -121.3489990  29.8756905    -99.1675568   -55.8906784   123.2452011   -17.7756805   -144.0464935  
1335000000    -12.0537901   -121.7043991  29.8611507    -99.7419891   -55.9958191   125.6306000   -17.7623806   -144.2017059  
1340000000    -12.0678501   -122.1398010  29.8511105    -100.3401031  -56.5438385   122.3134003   -17.7511196   -144.6943054  
1345000000    -12.1022501   -122.5365982  29.8373508    -100.9095993  -55.7144089   124.3377991   -17.7536392   -144.8527985  
1350000000    -12.1248503   -122.9413986  29.8254509    -101.5093994  -55.4074097   115.5161972   -17.7425709   -145.2698975  
1355000000    -12.1524801   -123.3858032  29.8145504    -102.1111984  -54.9335518   124.0662003   -17.7458897   -145.6349030  
1360000000    -12.1838703   -123.8352966  29.8021393    -102.6828003  -55.5393715   111.0371017   -17.7722797   -146.0648956  
1365000000    -12.2115097   -124.1550980  29.7910805    -103.2606964  -55.8517189   120.8856964   -17.7606201   -146.1107941  
1370000000    -12.2488699   -124.6856995  29.7767391    -103.8567963  -56.8110199   110.4253998   -17.7854309   -146.7317047  
1375000000    -12.2655001   -125.0612030  29.7686691    -104.4600983  -55.0373802   121.9662018   -17.7894497   -146.9864960  
1380000000    -12.3052101   -125.4511032  29.7533703    -105.0235977  -55.0724602   127.0317001   -17.7916298   -147.3099060  
1385000000    -12.3474302   -125.8267975  29.7427197    -105.6389008  -56.2312202   120.2785034   -17.7818298   -147.6329956  
1390000000    -12.3838396   -126.3789978  29.7246208    -106.2311020  -54.6585808   121.0389023   -17.7988605   -148.1544037  
1395000000    -12.3985596   -126.6853027  29.7130699    -106.8397980  -56.1351318   118.9785004   -17.8076992   -148.4282074  
1400000000    -12.4239998   -127.0837021  29.6970997    -107.4132996  -54.9082108   115.8730011   -17.8373394   -148.8997955  
1405000000    -12.4704905   -127.5198975  29.6822395    -107.9712982  -55.0199089   116.8525009   -17.8449898   -149.2328033  
1410000000    -12.5021296   -127.8988037  29.6670494    -108.5709000  -56.1531296   115.5579987   -17.8326092   -149.8117981  
1415000000    -12.5308599   -128.3551025  29.6561394    -109.1556015  -54.7821312   118.5012970   -17.8429394   -149.9365997  
1420000000    -12.5581503   -128.8217010  29.6407604    -109.7459030  -54.7882385   124.7828979   -17.8618603   -150.2891998  
1425000000    -12.5845900   -129.2877045  29.6248493    -110.3404007  -55.0159912   120.4017029   -17.8529205   -150.7736053  
1430000000    -12.6275101   -129.5491943  29.6114197    -110.9275970  -54.4975891   113.6402969   -17.8662300   -151.2843018  
1435000000    -12.6669903   -130.0733032  29.5972996    -111.5167007  -55.1562195   113.8711014   -17.9171505   -151.5778046  
1440000000    -12.6974401   -130.3852997  29.5790501    -112.1220016  -55.3829803   116.0963974   -17.8888702   -152.0619965  
1445000000    -12.7235098   -130.7561035  29.5657406    -112.6969986  -55.0559883   123.0871964   -17.9101105   -152.6567993  
1450000000    -12.7623100   -131.0816956  29.5446091    -113.3047028  -54.7648201   116.6989975   -17.9258709   -153.0648956  
1455000000    -12.8057499   -131.5325012  29.5286503    -113.8971024  -54.7717400   111.7441025   -17.9761009   -153.4380951  
