!Mini-Circuits Laboratory
!S-Parameters
!Model: PMA-545G2+
!Run / Lot / Date Code: N/A / N/A / NA
!Fixture: NA; TEST BOARD: TB-607+
!AUTO PORT EXTENSION DONE: PORT<1>=120.99ps; PORT<2>=143.047ps
!Network Analyzer: PNA-X N5242A - 423 4 ports;  Serial number: 71256
!Date: 1/11/2011
!S/N: Unit# 3
!
# Hz  S  dB  R  50
!Frequency    S11 dB        S11 Deg       S21 dB        S21 Deg       S12 dB        S12 Deg       S22 dB        S22 Deg       
700000000     -11.3669500   -61.3073387   30.8189392    -22.2415009   -64.3761063   134.8966980   -20.8297691   -142.8690948  
705000000     -11.3333502   -61.7759705   30.8009205    -22.9892292   -65.9081268   137.2949982   -20.7073803   -142.5341034  
710000000     -11.2964401   -62.3137589   30.7932606    -23.7004604   -67.8822708   170.3531952   -20.7064991   -142.3990936  
715000000     -11.2596598   -62.7545090   30.7784500    -24.4237499   -66.6519775   136.2996979   -20.6893196   -141.9723969  
720000000     -11.2235603   -63.2211609   30.7644100    -25.1288795   -65.2848434   125.6893005   -20.6476192   -141.5749969  
725000000     -11.1919298   -63.7205582   30.7530804    -25.8416195   -65.3620377   108.1194992   -20.5965195   -141.1470032  
730000000     -11.1488504   -64.2117233   30.7404995    -26.5263996   -64.2221909   124.7558975   -20.5736008   -141.1390076  
735000000     -11.1256199   -64.7696686   30.7261295    -27.2192993   -64.5967102   110.3706970   -20.5222092   -141.0964966  
740000000     -11.1066704   -65.1864395   30.7115402    -27.9214497   -67.4342499   148.7962952   -20.5446892   -140.7373962  
745000000     -11.0733404   -65.6807785   30.7041206    -28.5978603   -65.8644791   125.8427963   -20.4805603   -140.4331970  
750000000     -11.0403500   -66.1647491   30.6947403    -29.2880497   -62.8211098   148.9192963   -20.4421406   -139.6923065  
755000000     -11.0307598   -66.6486435   30.6821098    -29.9828701   -65.7169571   142.4541016   -20.3968105   -139.6584015  
760000000     -11.0090704   -67.1953964   30.6721191    -30.6487007   -62.8194885   140.1678925   -20.3383694   -139.3724060  
765000000     -10.9756002   -67.6616898   30.6590405    -31.3050003   -64.9008331   140.9929962   -20.3356800   -139.2521973  
770000000     -10.9460802   -68.2489700   30.6502094    -31.9921494   -64.0412521   128.5402985   -20.3159199   -138.9523926  
775000000     -10.9429903   -68.7255173   30.6391392    -32.6409607   -63.2723808   123.1744995   -20.2489109   -138.4550018  
780000000     -10.9185696   -69.1280899   30.6271992    -33.2943306   -66.2885895   121.8285980   -20.2096405   -138.5119934  
785000000     -10.9029999   -69.5938797   30.6188908    -33.9325485   -64.7049789   135.9483032   -20.2412109   -138.0099030  
790000000     -10.8921003   -70.0697784   30.6098194    -34.5969810   -65.7737732   125.0786972   -20.1923409   -137.8798065  
795000000     -10.8767099   -70.5767670   30.5972595    -35.2569008   -63.4439507   143.2653046   -20.1812496   -137.4781952  
800000000     -10.8651304   -70.9512482   30.5897293    -35.9030190   -64.3801270   158.8858032   -20.2298908   -137.0904999  
805000000     -10.8206997   -71.5918808   30.5914707    -36.4956894   -65.3286438   124.2337036   -20.1015701   -136.5413055  
810000000     -10.8212795   -72.0404129   30.5779705    -37.1880493   -61.3654099   139.6324005   -20.0504799   -136.5816040  
815000000     -10.8142500   -72.5729218   30.5696793    -37.8378296   -63.9449997   132.6813965   -20.0628395   -136.3220978  
820000000     -10.8146400   -73.0570221   30.5629292    -38.4658394   -64.4603500   108.3534012   -20.0621300   -136.4983063  
825000000     -10.8048601   -73.5379562   30.5495396    -39.0938797   -61.6652107   135.8536987   -20.0254192   -136.2928009  
830000000     -10.7896700   -73.9985962   30.5457802    -39.7328682   -62.6026306   133.7496948   -20.0004292   -136.0818024  
835000000     -10.7920504   -74.4429474   30.5362091    -40.3660889   -60.8225784   134.2265930   -19.9515896   -135.7846985  
840000000     -10.7779198   -74.9674301   30.5287609    -40.9986191   -65.9178467   118.6811981   -19.9054909   -135.4308929  
845000000     -10.7861900   -75.5058136   30.5230503    -41.6139793   -60.7322311   137.2597961   -19.8987503   -135.3350983  
850000000     -10.7801704   -75.9701920   30.5177193    -42.2542000   -62.5787697   142.7418976   -19.8570099   -135.1849060  
855000000     -10.7705202   -76.4992371   30.5100193    -42.8804283   -62.8716393   151.9654999   -19.8347492   -134.9040070  
860000000     -10.7714701   -77.0314865   30.5042591    -43.4981308   -63.9261703   143.5420074   -19.8072395   -134.7373962  
865000000     -10.7630501   -77.4908295   30.4967594    -44.1078110   -65.3581619   114.6551971   -19.7813206   -134.7160950  
870000000     -10.7455397   -77.9157867   30.4923191    -44.7114906   -63.0769310   135.6213989   -19.7526302   -134.0859070  
875000000     -10.7526999   -78.3578873   30.4836693    -45.3412895   -63.7058411   145.5382996   -19.7524509   -134.1519012  
880000000     -10.7444201   -78.9601974   30.4778805    -45.9736290   -60.9687309   142.2389984   -19.6489792   -133.9286041  
885000000     -10.7543201   -79.4117966   30.4727497    -46.5835190   -63.5461807   129.6284027   -19.6394005   -133.5982971  
890000000     -10.7566795   -79.9889526   30.4680309    -47.1809998   -60.3479691   125.7981033   -19.6567192   -133.8047028  
895000000     -10.7522097   -80.3504868   30.4568596    -47.8118401   -61.1770706   118.3583984   -19.6400604   -133.6107941  
900000000     -10.7570496   -80.9407730   30.4515209    -48.4167595   -61.9748497   144.6687927   -19.6079102   -133.5375977  
905000000     -10.7650299   -81.4193268   30.4464798    -49.0246887   -59.9058914   142.5915070   -19.5754395   -133.2572021  
910000000     -10.7676601   -81.8401337   30.4459095    -49.6130486   -60.8966408   142.8220062   -19.5317402   -133.0429993  
915000000     -10.7607098   -82.3962708   30.4335709    -50.2407112   -63.2750015   146.9898987   -19.4836693   -133.0290985  
920000000     -10.7583303   -82.8313293   30.4313698    -50.8382683   -62.1044197   143.6401978   -19.4626408   -132.8592987  
925000000     -10.7585897   -83.4314880   30.4259300    -51.4396095   -61.9624901   136.2026978   -19.4257507   -132.6251068  
930000000     -10.7715902   -83.8963699   30.4203892    -52.0413208   -63.2078514   128.4221954   -19.4263401   -132.5565033  
935000000     -10.7761698   -84.2737274   30.4136009    -52.6166496   -65.3875809   146.0628967   -19.3921204   -132.3311005  
940000000     -10.7814598   -84.7990265   30.4089394    -53.2774391   -61.5575409   136.5527954   -19.3345394   -132.5162048  
945000000     -10.7646999   -85.3012772   30.4019508    -53.8598404   -61.4743500   155.8125000   -19.2837505   -132.1885071  
950000000     -10.7861700   -85.8049774   30.3980293    -54.4322510   -62.1813202   120.0146027   -19.2887096   -132.0885010  
955000000     -10.7969999   -86.3829422   30.3921604    -55.0469284   -60.6716194   126.6119995   -19.2460403   -132.1022949  
960000000     -10.8032303   -86.8640671   30.3848991    -55.6215210   -60.9812508   153.2660980   -19.2400303   -131.7796936  
965000000     -10.7924700   -87.3135223   30.3811607    -56.2358894   -62.9240303   111.7189026   -19.2327709   -131.7366028  
970000000     -10.8068705   -87.7911072   30.3757801    -56.8117104   -62.5406914   127.0299988   -19.1866703   -131.6273956  
975000000     -10.8172398   -88.3052368   30.3679600    -57.4279213   -62.9183693   126.8548965   -19.1684093   -131.7731934  
980000000     -10.8170099   -88.7286072   30.3632793    -57.9958496   -61.5794983   138.8141022   -19.1295509   -131.5496979  
985000000     -10.8311100   -89.1619568   30.3600006    -58.6064911   -62.8865891   140.1732941   -19.1198997   -131.3444061  
990000000     -10.8305998   -89.7532883   30.3566799    -59.1670914   -62.6265602   136.7032928   -19.0840302   -131.5861053  
995000000     -10.8294601   -90.2220764   30.3549709    -59.7723999   -61.9135094   141.3535004   -19.0110397   -131.4127960  
1000000000    -10.8551598   -90.7235336   30.3455696    -60.3605385   -61.6366386   128.3309021   -18.9947891   -131.4015045  
1005000000    -10.8590403   -91.1867828   30.3432102    -60.9595108   -59.2124901   127.2791977   -18.9400501   -131.2570038  
1010000000    -10.8618097   -91.7021637   30.3392200    -61.5421715   -61.6975784   126.1116028   -18.9323997   -131.3726959  
1015000000    -10.8762798   -92.2153778   30.3298893    -62.1249886   -59.7880707   140.5782013   -18.9014606   -131.3300018  
1020000000    -10.8859196   -92.6659622   30.3294697    -62.7200508   -60.0951195   141.2407990   -18.8838100   -131.2881927  
1025000000    -10.8905296   -93.1553116   30.3231602    -63.2922096   -59.3459511   130.8872986   -18.8461094   -131.3063965  
1030000000    -10.8948898   -93.6854172   30.3171291    -63.9002190   -58.4303589   128.5415955   -18.8031502   -131.3424988  
1035000000    -10.8933601   -94.1196594   30.3188591    -64.4756470   -58.4526596   147.2066956   -18.7701492   -131.2156067  
1040000000    -10.9106998   -94.6356430   30.3087406    -65.0635071   -59.4843292   134.0679016   -18.7632198   -131.2740021  
1045000000    -10.9177599   -95.1405029   30.3048306    -65.6525726   -60.9945984   138.0585022   -18.7435894   -131.1423035  
1050000000    -10.9409904   -95.5602875   30.2992001    -66.2185364   -59.8800697   126.5086975   -18.7273998   -131.1334076  
1055000000    -10.9484997   -96.0163727   30.2944508    -66.8231506   -60.8104591   131.9727936   -18.6893005   -131.2290039  
1060000000    -10.9642096   -96.5102234   30.2891998    -67.3940735   -59.0898285   131.7138062   -18.6632805   -131.0982971  
1065000000    -10.9655800   -97.0515594   30.2834206    -67.9751129   -59.5526810   138.6201019   -18.6605701   -131.2095947  
1070000000    -10.9842396   -97.5052872   30.2818909    -68.5871964   -60.9397583   128.6819000   -18.6204205   -131.2465973  
1075000000    -10.9951801   -97.9561996   30.2750092    -69.1671982   -58.6746101   139.5653992   -18.5939503   -131.3899994  
1080000000    -11.0194502   -98.4068527   30.2689705    -69.7422485   -58.2861710   130.4176025   -18.5768204   -131.5536041  
1085000000    -11.0202103   -98.8617783   30.2667599    -70.3327332   -57.7741394   123.2303009   -18.5342999   -131.5142975  
1090000000    -11.0396605   -99.4248734   30.2641106    -70.9170609   -60.4519005   135.8822021   -18.4968300   -131.5478058  
1095000000    -11.0533199   -99.9067764   30.2549496    -71.5024338   -61.0287704   127.2266006   -18.4433308   -131.5919952  
1100000000    -11.0597000   -100.3234024  30.2504292    -72.0704727   -58.7546806   137.5263062   -18.4316597   -131.6051025  
1105000000    -11.0816202   -100.8342972  30.2471199    -72.6910706   -59.5719604   131.2048035   -18.4241905   -131.7476959  
1110000000    -11.0871201   -101.2450027  30.2404594    -73.2556534   -58.6663704   128.0899963   -18.4118004   -131.4600067  
1115000000    -11.1026497   -101.6956024  30.2365894    -73.8223495   -58.8490791   128.5088959   -18.4133205   -131.6499023  
1120000000    -11.1160698   -102.1179962  30.2293301    -74.4174728   -58.4970703   121.8382034   -18.3641205   -131.7841034  
1125000000    -11.1392698   -102.5645981  30.2233009    -75.0016479   -59.4941101   127.1705017   -18.3537102   -131.7711945  
1130000000    -11.1404495   -103.0709000  30.2208900    -75.5793533   -58.2056999   112.2301025   -18.3274097   -131.7902985  
1135000000    -11.1399899   -103.6126022  30.2175999    -76.1502533   -58.3638000   130.8013000   -18.2806492   -131.6430054  
1140000000    -11.1653404   -104.1594009  30.2150707    -76.7656174   -58.7139091   122.8327026   -18.2352009   -132.0639038  
1145000000    -11.1931896   -104.5596008  30.2050095    -77.3425064   -58.4234314   126.9779968   -18.2220707   -132.2976990  
1150000000    -11.1977301   -104.9912033  30.1980896    -77.9312286   -59.3545189   138.7610016   -18.2185192   -132.1412964  
1155000000    -11.2211704   -105.4406967  30.1947308    -78.5326385   -59.6703796   130.9990997   -18.1904297   -132.3092041  
1160000000    -11.2356300   -105.9227982  30.1853294    -79.1167984   -59.2664604   128.6089935   -18.1861401   -132.6356049  
1165000000    -11.2708998   -106.5214005  30.1783295    -79.7061234   -57.1391792   134.0077972   -18.1550999   -132.9476013  
1170000000    -11.2865801   -106.8971024  30.1725292    -80.2977829   -58.4843712   129.5455017   -18.1345406   -132.9893036  
1175000000    -11.2901602   -107.3991013  30.1657200    -80.8835526   -58.8071899   135.5617065   -18.1166897   -133.0888977  
1180000000    -11.3315802   -107.7739029  30.1602993    -81.4656067   -57.8375015   132.9389954   -18.1112709   -133.2006073  
1185000000    -11.3434095   -108.2815018  30.1536102    -82.0427628   -58.1849213   129.5142975   -18.0812092   -133.3112030  
1190000000    -11.3559198   -108.6934967  30.1473103    -82.6223907   -57.4613914   136.0086060   -18.0573597   -133.2622070  
1195000000    -11.3668804   -109.1658020  30.1401901    -83.2128067   -57.4302101   124.2164993   -18.0374508   -133.4510040  
1200000000    -11.3923702   -109.6172028  30.1337299    -83.7864532   -58.0413284   127.4498978   -18.0181599   -133.5843964  
1205000000    -11.4089003   -110.0168991  30.1291695    -84.3828506   -58.1360893   129.5446014   -18.0116501   -133.7160034  
1210000000    -11.4320602   -110.6241989  30.1189098    -84.9908600   -57.2998009   131.2478027   -17.9902191   -134.0408020  
1215000000    -11.4462299   -110.8610001  30.1153793    -85.5850601   -59.7006111   129.2106934   -17.9919109   -134.0684052  
1220000000    -11.4733400   -111.4605026  30.1019802    -86.1685867   -57.1724091   120.1576004   -18.0022697   -134.4631958  
1225000000    -11.4902201   -111.9332962  30.0983791    -86.7750931   -57.1990509   126.0807037   -17.9532604   -134.6170044  
1230000000    -11.5067101   -112.3458023  30.0885601    -87.3603363   -58.3967705   129.4772949   -17.9505405   -134.6867065  
1235000000    -11.5553999   -112.7811966  30.0813808    -87.9289474   -56.5297012   121.5542984   -17.9568806   -135.0997925  
1240000000    -11.5543098   -113.3450012  30.0735092    -88.4955063   -56.8809700   128.1627960   -17.9440708   -135.2247009  
1245000000    -11.5670996   -113.5939026  30.0676994    -89.0968170   -56.5813484   120.6847000   -17.9372292   -135.4167938  
1250000000    -11.5953102   -114.1829987  30.0574703    -89.6839066   -56.8721199   128.0491028   -17.9265995   -135.6287994  
1255000000    -11.6196404   -114.5569000  30.0484905    -90.2798309   -56.4193497   124.2304001   -17.9070892   -135.8007050  
1260000000    -11.6373796   -115.0108032  30.0395908    -90.8681412   -56.8739700   120.8578033   -17.8819904   -136.1546936  
1265000000    -11.6750002   -115.5195999  30.0302391    -91.4435730   -56.5041389   132.6797028   -17.9139805   -136.4266052  
1270000000    -11.6879797   -115.9335022  30.0242405    -92.0481720   -56.3995705   122.7787018   -17.9037209   -136.4243011  
1275000000    -11.6926003   -116.3178024  30.0152206    -92.6090393   -56.5257797   125.3632965   -17.8429699   -136.5635986  
1280000000    -11.7066603   -116.9135971  30.0088806    -93.2329788   -56.8681183   132.1338959   -17.8153305   -136.9165955  
1285000000    -11.7567501   -117.3657990  29.9952908    -93.8296738   -57.0693817   129.7156067   -17.8245792   -137.4971924  
1290000000    -11.7827797   -117.7484970  29.9851799    -94.4269028   -56.2415390   125.7368011   -17.8248405   -137.6909027  
1295000000    -11.8153000   -118.1927032  29.9723091    -95.0171204   -57.3942184   133.2792969   -17.8498898   -137.9297028  
1300000000    -11.8276901   -118.6165009  29.9634895    -95.6092606   -55.9738617   132.4214020   -17.7964401   -138.1036987  
1305000000    -11.8575201   -119.1248016  29.9530907    -96.1961136   -56.4501495   126.0636978   -17.8289795   -138.5422058  
1310000000    -11.8898296   -119.4520035  29.9425106    -96.8007278   -56.6888008   121.0436020   -17.8372097   -138.8520966  
1315000000    -11.9002895   -119.9628983  29.9316406    -97.3631592   -56.8661308   127.3150024   -17.8372402   -139.0137024  
1320000000    -11.9417295   -120.3710022  29.9222298    -97.9555893   -56.7787514   121.6652985   -17.8439198   -139.3018036  
1325000000    -11.9723701   -120.7356033  29.9092598    -98.5584564   -56.1414299   121.0871964   -17.8428497   -139.6976929  
1330000000    -11.9997101   -121.2570038  29.8966198    -99.1485519   -56.6730995   123.6669998   -17.8402004   -140.0312958  
1335000000    -12.0293798   -121.5457001  29.8839607    -99.7280197   -56.1457405   119.2546997   -17.8418407   -140.2097015  
1340000000    -12.0507402   -122.0598984  29.8725204    -100.3218002  -57.9514618   125.5599976   -17.8179398   -140.7171936  
1345000000    -12.0891504   -122.4561996  29.8609791    -100.8945999  -56.2924614   124.9956970   -17.8270702   -140.8448029  
1350000000    -12.1157503   -122.9116974  29.8471794    -101.4992981  -57.9943314   119.5980988   -17.8396301   -141.5242004  
1355000000    -12.1305399   -123.3236008  29.8361492    -102.0950012  -56.2692184   129.9293060   -17.8349609   -141.6510010  
1360000000    -12.1666498   -123.7734985  29.8227406    -102.6707993  -56.6389809   126.0475006   -17.8650703   -141.9723053  
1365000000    -12.1988602   -124.1417999  29.8113708    -103.2362976  -56.1774902   117.8552017   -17.8419895   -142.1663055  
1370000000    -12.2185097   -124.6018982  29.7979298    -103.8347015  -55.7588005   123.1619034   -17.8448505   -142.6092072  
1375000000    -12.2525702   -124.9283981  29.7888603    -104.4365005  -56.0479088   114.5177994   -17.8808098   -143.1004944  
1380000000    -12.2867298   -125.3227997  29.7742290    -105.0062027  -55.1357002   118.5297012   -17.8722591   -143.4801025  
1385000000    -12.3199997   -125.8071976  29.7609291    -105.6184006  -56.1644783   120.8199997   -17.8876495   -143.8153076  
1390000000    -12.3555803   -126.2826996  29.7454891    -106.2145004  -55.6167793   120.7584991   -17.8935795   -144.1636047  
1395000000    -12.3731403   -126.6611023  29.7335300    -106.8160019  -55.5237885   128.4049988   -17.8882294   -144.5881042  
1400000000    -12.3936300   -126.9854965  29.7178707    -107.3805008  -55.3985710   119.7248993   -17.9112206   -145.0357056  
1405000000    -12.4479904   -127.4393005  29.7023392    -107.9512024  -54.6229095   117.8069992   -17.9368496   -145.3666992  
1410000000    -12.4709797   -127.8843994  29.6859894    -108.5492020  -55.8984718   124.7738037   -17.9301701   -145.8424988  
1415000000    -12.4963703   -128.3195953  29.6743908    -109.1396027  -55.4259491   123.0008011   -17.9491692   -146.0166931  
1420000000    -12.5353003   -128.6428070  29.6592407    -109.7307968  -55.3420105   118.0043030   -17.9619198   -146.4586029  
1425000000    -12.5538902   -129.1049042  29.6432800    -110.3209000  -56.5279198   114.9151001   -17.9564705   -146.9868927  
1430000000    -12.6134100   -129.4705048  29.6284904    -110.9075012  -53.6922112   121.0206985   -17.9716702   -147.4477997  
1435000000    -12.6389704   -129.7736053  29.6144695    -111.4907990  -54.7817192   118.7684021   -18.0023193   -147.8170929  
1440000000    -12.6555901   -130.1994934  29.5964794    -112.0952988  -55.0569916   115.0758972   -18.0072899   -148.2371979  
1445000000    -12.6996498   -130.5971985  29.5826893    -112.6701965  -54.8233299   125.0146027   -18.0172501   -148.7149963  
1450000000    -12.7358103   -130.9353027  29.5612297    -113.2792969  -54.9944305   119.0223007   -18.0472393   -149.2689056  
1455000000    -12.7678099   -131.3515930  29.5450001    -113.8721008  -55.2850494   116.5709991   -18.0622597   -149.4335938  
