!Mini-Circuits Laboratory
!S-Parameters
!Model: PMA-545G2+
!Run / Lot / Date Code: N/A / N/A / NA
!Fixture: NA; TEST BOARD: TB-607+
!AUTO PORT EXTENSION DONE: PORT<1>=120.99ps; PORT<2>=143.047ps
!Network Analyzer: PNA-X N5242A - 423 4 ports;  Serial number: 71256
!Date: 1/11/2011
!S/N: Unit# 3
!
# Hz  S  dB  R  50
!Frequency    S11 dB        S11 Deg       S21 dB        S21 Deg       S12 dB        S12 Deg       S22 dB        S22 Deg       
700000000     -15.9856195   -54.0472603   32.4075317    -22.1990395   -65.5180435   101.6808014   -17.0222492   -169.0070038  
705000000     -15.8668699   -54.8212814   32.3921890    -23.0268803   -65.9052277   116.3732986   -16.9737892   -168.7678986  
710000000     -15.7640600   -55.6876488   32.3893509    -23.8138599   -66.9677734   126.3172989   -16.9646702   -168.6905975  
715000000     -15.6557102   -56.4343300   32.3782005    -24.5853901   -65.1318665   142.3699036   -17.0030708   -168.6894073  
720000000     -15.5720901   -57.2444801   32.3662682    -25.3637009   -65.7929382   124.6910019   -16.9943695   -168.6130981  
725000000     -15.4700003   -58.0352592   32.3610802    -26.1471806   -69.1677628   145.4315948   -16.9913292   -168.5762024  
730000000     -15.4005604   -58.7371292   32.3518410    -26.9056301   -70.5146332   105.9105988   -16.9735699   -168.4940033  
735000000     -15.3251801   -59.6916695   32.3392715    -27.6622391   -64.7398911   108.9396973   -16.9727306   -168.3489075  
740000000     -15.2604198   -60.1909218   32.3278084    -28.4283695   -63.6638489   127.7882004   -16.9772205   -168.4579926  
745000000     -15.1914396   -61.0769005   32.3237190    -29.1712704   -62.8520508   118.9824982   -16.9776192   -168.3630981  
750000000     -15.1051702   -61.7761612   32.3151093    -29.9226608   -62.5578308   130.1295929   -16.9821606   -168.2686005  
755000000     -15.0795498   -62.6529007   32.3051682    -30.6885509   -65.3521729   115.4552994   -17.0077496   -168.2971954  
760000000     -15.0140495   -63.3061981   32.2969017    -31.4109592   -64.7358475   126.6453018   -16.9967308   -168.2108002  
765000000     -14.9649601   -63.9338799   32.2862587    -32.1294899   -67.8475494   127.1706009   -17.0069695   -168.0711975  
770000000     -14.8790503   -64.7897186   32.2784996    -32.8789406   -68.2771912   105.5464020   -17.0176105   -168.1080017  
775000000     -14.8322697   -65.5460129   32.2704887    -33.6020088   -65.9683685   124.2996979   -17.0041103   -167.9882965  
780000000     -14.7713003   -66.1815872   32.2603912    -34.3073006   -66.3916626   118.1134033   -16.9963398   -168.1560059  
785000000     -14.7373400   -66.9020233   32.2538490    -35.0136490   -61.7580414   132.0664978   -17.0288105   -167.9416046  
790000000     -14.6814203   -67.5474701   32.2480583    -35.7249107   -65.2940063   163.3437958   -17.0547695   -168.1212006  
795000000     -14.6679602   -68.4710236   32.2383194    -36.4483986   -66.4930267   110.7263031   -17.0480404   -168.0744934  
800000000     -14.6022902   -69.0391006   32.2325706    -37.1389618   -64.0838470   121.2563019   -17.0883808   -167.8448944  
805000000     -14.5522804   -69.8495026   32.2330894    -37.8113213   -63.6435890   118.6961975   -17.0602093   -167.7382965  
810000000     -14.5212402   -70.4869919   32.2219887    -38.5543098   -61.0938911   137.1141968   -17.0464306   -167.7120056  
815000000     -14.4876499   -71.2477036   32.2137413    -39.2570801   -65.6256790   120.6080017   -17.0893307   -167.9237061  
820000000     -14.4593801   -71.9932022   32.2097511    -39.9383507   -64.8771210   141.7389984   -17.0621490   -167.9221039  
825000000     -14.4320602   -72.6380615   32.1982689    -40.6211205   -63.4221497   125.5646973   -17.0731506   -167.8847961  
830000000     -14.3967800   -73.3269577   32.1946907    -41.3227501   -65.7740707   132.4347992   -17.0759392   -167.8766937  
835000000     -14.3796701   -73.9776535   32.1868782    -41.9927292   -66.3207321   123.7947006   -17.0593109   -167.7588959  
840000000     -14.3509502   -74.6654434   32.1809998    -42.6867714   -61.0993004   125.5959015   -17.1078892   -167.6916962  
845000000     -14.3461905   -75.5169830   32.1738091    -43.3514519   -65.3369217   132.1676025   -17.0977707   -167.9299927  
850000000     -14.3220301   -76.2225800   32.1690292    -44.0479507   -64.5924530   114.0658035   -17.0734196   -167.7873993  
855000000     -14.2801704   -76.8998566   32.1626892    -44.7370110   -60.8637085   121.3191986   -17.0917397   -167.4544067  
860000000     -14.2743301   -77.7564163   32.1559486    -45.3935699   -62.3120804   110.4451981   -17.0827999   -167.7140961  
865000000     -14.2452297   -78.3103485   32.1513786    -46.0542412   -63.0923119   122.5707016   -17.0889206   -167.7559052  
870000000     -14.2138901   -78.9814072   32.1476212    -46.7100601   -63.7732201   117.4522018   -17.1020508   -167.6896973  
875000000     -14.1893101   -79.6577072   32.1396294    -47.3874207   -61.5060997   140.2088928   -17.1152096   -167.5126038  
880000000     -14.1903496   -80.4292908   32.1328506    -48.0667305   -62.0103416   126.3722000   -17.0908699   -167.5218964  
885000000     -14.1652203   -81.1713028   32.1301994    -48.7419586   -61.4279900   131.0377045   -17.0931492   -167.5043030  
890000000     -14.1394100   -81.8684464   32.1244583    -49.3818207   -62.2190704   132.5229034   -17.1035500   -167.5482025  
895000000     -14.1207800   -82.4176178   32.1136589    -50.0601997   -62.6436996   133.5086975   -17.0997009   -167.5821991  
900000000     -14.1148100   -83.1999283   32.1102104    -50.7011108   -64.3575821   125.7315979   -17.1156902   -167.5401001  
905000000     -14.1015997   -83.8406372   32.1046410    -51.3668900   -64.5493164   128.5030975   -17.0994701   -167.4615936  
910000000     -14.1118898   -84.5508194   32.1029282    -51.9928398   -62.3173790   139.0541992   -17.1215000   -167.4640045  
915000000     -14.0888901   -85.1607513   32.0931396    -52.6671982   -62.8401909   133.3892975   -17.0948009   -167.5195007  
920000000     -14.0780497   -85.9024277   32.0905800    -53.3113899   -63.9087906   106.5680008   -17.0884991   -167.5325012  
925000000     -14.0579300   -86.4709396   32.0850487    -53.9426804   -61.9008293   136.9398041   -17.1033592   -167.2382050  
930000000     -14.0500698   -87.0580902   32.0793915    -54.5942612   -63.6849518   150.4685059   -17.1137409   -167.2722015  
935000000     -14.0095196   -87.9012985   32.0740700    -55.2092590   -58.8514290   133.2097931   -17.0738602   -167.0870056  
940000000     -14.0468502   -88.5337067   32.0687408    -55.9052200   -61.3435402   131.4001007   -17.0996399   -167.2135925  
945000000     -14.0389500   -89.1000137   32.0625305    -56.5296211   -62.4649010   111.2011032   -17.0669308   -167.3188019  
950000000     -14.0322599   -90.0929108   32.0571289    -57.1558990   -59.1126518   124.5914001   -17.0767307   -167.2476044  
955000000     -14.0151997   -90.5942535   32.0535889    -57.8052292   -63.6498795   118.0070038   -17.1082191   -167.1289063  
960000000     -14.0245104   -91.2959518   32.0460587    -58.4317398   -59.4902802   145.6981964   -17.0874100   -167.0630035  
965000000     -14.0100098   -91.9195328   32.0434494    -59.0732307   -61.8159904   131.2803955   -17.1047802   -167.0173035  
970000000     -14.0007296   -92.4610596   32.0394211    -59.6921387   -60.9713097   117.2260971   -17.1021805   -167.0265961  
975000000     -14.0148401   -93.2040176   32.0326614    -60.3435211   -60.7608910   130.5301056   -17.1088505   -167.1813049  
980000000     -14.0188503   -93.7291870   32.0281601    -60.9465790   -64.6486969   129.0746002   -17.0872002   -167.0832062  
985000000     -14.0142202   -94.3647995   32.0252419    -61.5931206   -62.2506905   130.2801971   -17.1217194   -166.9918976  
990000000     -13.9937601   -95.2427368   32.0207596    -62.2110214   -60.0192184   124.0509033   -17.0922794   -166.9293060  
995000000     -14.0046597   -95.7841034   32.0191803    -62.8473587   -63.3266106   129.4680023   -17.0802402   -166.8097992  
1000000000    -14.0105305   -96.5027466   32.0132790    -63.4784012   -61.2901115   123.5651016   -17.0788708   -166.9105072  
1005000000    -14.0267801   -97.0203705   32.0079384    -64.1077194   -61.5793991   124.7910995   -17.0878792   -166.8731995  
1010000000    -14.0091295   -97.7459869   32.0061989    -64.7256088   -61.9205284   108.6539993   -17.0761299   -166.9299011  
1015000000    -14.0222998   -98.4865036   31.9978008    -65.3571930   -58.5084190   134.8647003   -17.0687294   -166.8056030  
1020000000    -14.0376701   -99.1178589   31.9968395    -65.9755325   -62.2774086   125.4516983   -17.0783901   -166.8025055  
1025000000    -14.0281496   -99.7963867   31.9907799    -66.6000519   -60.2636604   122.2459030   -17.0708199   -166.7306976  
1030000000    -14.0324602   -100.4412003  31.9855900    -67.2427063   -59.8240891   134.1237030   -17.0493107   -166.8598022  
1035000000    -14.0326700   -101.1666031  31.9860191    -67.8635483   -59.9663315   115.4924011   -17.0549297   -166.7991943  
1040000000    -14.0410299   -101.6949005  31.9787998    -68.4667282   -60.6380081   133.0281982   -17.0657101   -166.9517975  
1045000000    -14.0466099   -102.5842972  31.9761391    -69.1004868   -58.4138489   121.8629990   -17.0684109   -166.8455963  
1050000000    -14.0556498   -103.0111008  31.9713192    -69.7019501   -60.8307610   125.0988998   -17.0563698   -166.7812042  
1055000000    -14.0810204   -103.7388992  31.9667091    -70.3404617   -61.9138298   123.2341003   -17.0905304   -167.0229034  
1060000000    -14.0794401   -104.4135971  31.9610596    -70.9588318   -59.4448395   123.4906998   -17.0535698   -166.9208984  
1065000000    -14.0977297   -105.1897964  31.9552803    -71.5704269   -58.8999710   114.2468033   -17.0492592   -167.0431061  
1070000000    -14.1178503   -105.8285980  31.9539700    -72.2019806   -59.8839607   125.1368027   -17.0636101   -167.0095062  
1075000000    -14.1146698   -106.5358963  31.9478493    -72.8234634   -61.3157806   119.3912964   -17.0547600   -167.1914978  
1080000000    -14.1364498   -107.1580963  31.9426193    -73.4454727   -60.9794006   134.0955963   -17.0263691   -167.0021057  
1085000000    -14.1340303   -107.7843018  31.9408894    -74.0569305   -58.5060692   127.5538025   -17.0350494   -167.2675934  
1090000000    -14.1533003   -108.5681992  31.9377403    -74.6819534   -60.9666405   131.2657928   -17.0133209   -167.2140045  
1095000000    -14.1616802   -109.2900009  31.9316006    -75.3078232   -60.0549507   117.9045029   -17.0186996   -167.3096924  
1100000000    -14.1775999   -109.9934998  31.9267693    -75.9075775   -59.5144501   133.2498932   -17.0116005   -167.2727966  
1105000000    -14.1983604   -110.6495972  31.9245491    -76.5601578   -61.1328316   126.7658997   -17.0070896   -167.4058075  
1110000000    -14.1808300   -111.1669998  31.9168606    -77.1732864   -61.1812096   124.3159027   -17.0078907   -167.4474030  
1115000000    -14.1964598   -111.9517975  31.9133396    -77.7659607   -58.8660583   127.2823029   -17.0285797   -167.4450989  
1120000000    -14.2158699   -112.6504974  31.9072704    -78.3921814   -57.6957703   127.0419998   -17.0209198   -167.4369965  
1125000000    -14.2361202   -113.3223038  31.9012699    -79.0082474   -60.7533112   123.4757004   -17.0172596   -167.5686035  
1130000000    -14.2308502   -113.8994980  31.8995094    -79.6175766   -60.8801804   116.6726990   -17.0350895   -167.4367065  
1135000000    -14.2018099   -114.7792969  31.9004498    -80.2252197   -58.4782715   118.4803009   -16.9638996   -167.4718933  
1140000000    -14.2261496   -115.5061035  31.8968601    -80.8656616   -60.2782593   121.6825027   -16.9392509   -167.7122040  
1145000000    -14.2252798   -116.2534027  31.8875103    -81.4963531   -58.3954582   137.1546021   -16.9119492   -167.7086029  
1150000000    -14.2530699   -117.1428986  31.8794308    -82.1215897   -58.2047501   116.6524963   -16.9177704   -168.1578979  
1155000000    -14.2794704   -117.8063965  31.8753700    -82.7583618   -59.0700912   116.5514984   -16.9015903   -168.2086029  
1160000000    -14.2624903   -118.4881973  31.8672199    -83.3709488   -59.2685089   130.3529053   -16.8853893   -168.1876068  
1165000000    -14.3039703   -119.1047974  31.8595791    -83.9943237   -58.2493515   115.0177002   -16.8726807   -168.5406036  
1170000000    -14.3163404   -120.0473022  31.8527107    -84.6168594   -57.6434212   131.3504028   -16.8657894   -168.7014008  
1175000000    -14.3269596   -120.5675964  31.8476200    -85.2313232   -57.6782913   126.7574997   -16.8491001   -168.6947021  
1180000000    -14.3168402   -121.0989990  31.8412094    -85.8472366   -57.8121300   109.2455978   -16.8396397   -168.7386017  
1185000000    -14.3269701   -121.8363037  31.8377705    -86.4554520   -59.1479111   117.8028030   -16.8198795   -168.8379059  
1190000000    -14.3397799   -122.6025009  31.8317204    -87.0721664   -59.2828217   129.7438049   -16.8359203   -168.9857941  
1195000000    -14.3720999   -123.1339035  31.8252506    -87.6985321   -60.2475090   129.7463074   -16.8182793   -169.0332031  
1200000000    -14.3399000   -124.0588989  31.8190403    -88.3085403   -57.8772011   114.1673965   -16.7672195   -168.9893036  
1205000000    -14.3762703   -124.5026016  31.8117695    -88.9300385   -59.0933685   112.8102036   -16.7657299   -169.2478027  
1210000000    -14.3625402   -125.2848969  31.8029099    -89.5666122   -59.2621002   123.1658020   -16.7668095   -169.3482056  
1215000000    -14.3696299   -125.8835983  31.7989502    -90.2013397   -58.1229782   119.3172989   -16.7257996   -169.4645996  
1220000000    -14.3743801   -126.7680969  31.7873001    -90.8142395   -56.3365517   117.8062973   -16.7137108   -169.7189026  
1225000000    -14.3756399   -127.3104019  31.7815399    -91.4456863   -58.4106712   120.4824982   -16.7142906   -169.7346039  
1230000000    -14.3744497   -128.0666962  31.7727394    -92.0582962   -57.8872986   128.7604980   -16.6803207   -169.7006989  
1235000000    -14.3938799   -128.6188049  31.7651501    -92.6472931   -57.4202309   115.6193008   -16.6984291   -170.0079041  
1240000000    -14.3885298   -129.2126007  31.7591209    -93.2616577   -57.6219902   117.3591003   -16.6641502   -170.2312927  
1245000000    -14.3935404   -129.7675018  31.7551994    -93.8728409   -58.1044312   110.3928986   -16.6619701   -170.1714935  
1250000000    -14.3922300   -130.4660950  31.7439194    -94.4987793   -58.3381310   122.0953979   -16.6364708   -170.3970032  
1255000000    -14.4052095   -131.0211029  31.7356606    -95.1251373   -57.0699501   111.5534973   -16.6301308   -170.4288940  
1260000000    -14.3980703   -131.6775970  31.7282600    -95.7478638   -58.4718704   129.2772064   -16.6002293   -170.6118011  
1265000000    -14.4242001   -132.4114075  31.7183990    -96.3364868   -56.6844597   123.2175980   -16.6265297   -170.6903992  
1270000000    -14.3980904   -132.8896942  31.7163792    -96.9635696   -57.9123993   121.8487015   -16.6059608   -170.5612030  
1275000000    -14.3978701   -133.5859985  31.7094193    -97.5939331   -58.2482109   114.2750015   -16.5045605   -170.7122040  
1280000000    -14.4255695   -134.3975983  31.6973591    -98.2435837   -57.6766205   112.9798965   -16.5104008   -171.0276947  
1285000000    -14.4521399   -134.9207001  31.6851501    -98.8356476   -58.7432213   119.8991013   -16.5317707   -171.3150024  
1290000000    -14.4709301   -135.4877930  31.6750393    -99.4599762   -55.7945786   112.2436981   -16.4839191   -171.3307953  
1295000000    -14.4689703   -136.1044006  31.6637707    -100.0767975  -57.4878502   120.6314011   -16.4965191   -171.5243073  
1300000000    -14.4665499   -136.6242981  31.6561909    -100.7015991  -56.8540497   124.7399979   -16.4737797   -171.4774017  
1305000000    -14.4980497   -137.4216003  31.6452007    -101.3246002  -56.0343704   107.4619980   -16.4991207   -171.9116974  
1310000000    -14.5046196   -137.8181000  31.6352997    -101.9487000  -57.3784599   111.6196976   -16.4928703   -172.1179962  
1315000000    -14.4825296   -138.5121002  31.6261902    -102.5338974  -57.6535416   130.2433014   -16.4598103   -172.0287933  
1320000000    -14.5270996   -139.0238037  31.6162205    -103.1437988  -55.9505882   117.6384964   -16.4718800   -172.2955933  
1325000000    -14.5316401   -139.4660950  31.6049500    -103.7782974  -56.6697197   114.3082962   -16.4585705   -172.4539948  
1330000000    -14.5408297   -140.2738037  31.5942593    -104.3954010  -57.8239784   116.2991028   -16.4612598   -172.7160034  
1335000000    -14.5843401   -140.6486969  31.5823994    -104.9945984  -55.9072914   111.5830994   -16.4681797   -172.8522034  
1340000000    -14.5797005   -141.2725983  31.5730495    -105.6205978  -56.2354813   118.9276962   -16.4353199   -172.9853973  
1345000000    -14.5831003   -141.7388000  31.5616798    -106.2119980  -58.1410103   108.0606003   -16.4158993   -173.1483002  
1350000000    -14.5972996   -142.3343048  31.5492592    -106.8414993  -56.4486694   118.4459000   -16.4359303   -173.3594055  
1355000000    -14.6172705   -142.8849030  31.5394192    -107.4648972  -57.7227287   103.8993988   -16.4317207   -173.7061005  
1360000000    -14.6307001   -143.5830994  31.5282307    -108.0756989  -57.3464813   105.6353989   -16.4436092   -173.8836975  
1365000000    -14.6501799   -144.0391998  31.5188694    -108.6773987  -55.3101082   110.4657974   -16.4286995   -173.7404022  
1370000000    -14.6750698   -144.6493988  31.5041504    -109.3029022  -55.6484108   107.3506012   -16.4117794   -174.1423035  
1375000000    -14.6647501   -145.0697021  31.4970798    -109.9254990  -56.4768791   125.2242966   -16.4381409   -174.3992004  
1380000000    -14.7071695   -145.6215057  31.4831905    -110.5139008  -56.1652794   113.1248016   -16.4381695   -174.6873932  
1385000000    -14.7235498   -146.2306976  31.4730206    -111.1604996  -55.6735115   107.8834000   -16.4510708   -174.9232025  
1390000000    -14.7381201   -146.8706055  31.4563694    -111.7649994  -56.2358704   117.5501022   -16.4263706   -175.1208038  
1395000000    -14.7536001   -147.2642975  31.4462605    -112.3945999  -55.5255203   111.6904984   -16.4474792   -175.3574982  
1400000000    -14.7537804   -147.6997986  31.4334297    -112.9990997  -57.4884186   108.2289963   -16.4456902   -175.5491943  
1405000000    -14.7784204   -148.2628021  31.4195404    -113.5886993  -57.4592209   112.6804962   -16.4483795   -176.0278015  
1410000000    -14.8164301   -148.9158936  31.4058990    -114.2166977  -55.5965500   112.1857986   -16.4554195   -176.1725006  
1415000000    -14.8137798   -149.3833008  31.3956509    -114.8231964  -56.1781311   111.7805023   -16.4713097   -176.4019012  
1420000000    -14.8658104   -150.0782013  31.3802109    -115.4428024  -55.2299118   115.0307007   -16.4855003   -176.7460938  
1425000000    -14.8522100   -150.5621948  31.3663807    -116.0682983  -55.8602905   111.3899994   -16.4846592   -177.0901947  
1430000000    -14.8899698   -150.9947968  31.3549194    -116.6846008  -55.1015892   108.6544037   -16.5006008   -177.4295044  
1435000000    -14.9141598   -151.4591064  31.3404102    -117.2931976  -55.1418991   109.0121994   -16.5086498   -177.7261047  
1440000000    -14.9566803   -152.1002960  31.3248806    -117.9235001  -56.4820404   113.6689987   -16.4930305   -178.0332947  
1445000000    -14.9792700   -152.4315033  31.3136997    -118.5198975  -55.2960815   109.0352020   -16.4913902   -178.3849945  
1450000000    -14.9821701   -152.9013977  31.2949295    -119.1485977  -55.3747292   102.9646988   -16.5135708   -178.5854950  
1455000000    -15.0329199   -153.4039001  31.2796803    -119.7791977  -56.8006516   110.7655029   -16.5381603   -179.0287018  
