!Mini-Circuits Laboratory
!S-Parameters
!Model: PMA-545G2+
!Run / Lot / Date Code: N/A / N/A / NA
!Fixture: NA; TEST BOARD: TB-607+
!AUTO PORT EXTENSION DONE: PORT<1>=120.99ps; PORT<2>=143.047ps
!Network Analyzer: PNA-X N5242A - 423 4 ports;  Serial number: 71256
!Date: 1/11/2011
!S/N: Unit# 3
!
# Hz  S  dB  R  50
!Frequency    S11 dB        S11 Deg       S21 dB        S21 Deg       S12 dB        S12 Deg       S22 dB        S22 Deg       
700000000     -16.0889492   -54.5568390   32.4977989    -22.5754795   -62.0053291   128.9781036   -16.9998302   -169.0036926  
705000000     -16.0116692   -55.1736488   32.4831810    -23.4023800   -65.9977570   112.9350967   -16.9939709   -168.8323059  
710000000     -15.8929195   -56.2658997   32.4806099    -24.1923904   -66.1872635   144.7541962   -16.9895802   -168.6372986  
715000000     -15.8148098   -56.8202782   32.4694595    -24.9743690   -66.9822235   108.4269028   -16.9942894   -168.6085052  
720000000     -15.6970196   -57.6133804   32.4570808    -25.7417107   -67.3562469   117.9549026   -16.9956207   -168.6250000  
725000000     -15.6094103   -58.4450989   32.4501801    -26.5299606   -66.7836227   148.5917053   -17.0180702   -168.6770020  
730000000     -15.5434999   -59.1418800   32.4405708    -27.2882900   -64.8867722   151.8415070   -17.0184498   -168.5970001  
735000000     -15.4580698   -60.0987282   32.4286003    -28.0535603   -64.3607101   136.4474030   -17.0123196   -168.5704041  
740000000     -15.3810902   -60.8554306   32.4166489    -28.8176098   -69.8586807   121.7995987   -17.0050297   -168.6956940  
745000000     -15.3379402   -61.4151802   32.4111404    -29.5635395   -64.6302338   149.6269073   -17.0535507   -168.3831940  
750000000     -15.2588301   -62.1941605   32.4035301    -30.3125801   -65.1918182   145.4875946   -17.0284901   -168.3553925  
755000000     -15.1964903   -63.0617599   32.3924904    -31.0778008   -61.9344902   148.0451050   -16.9922504   -168.2548065  
760000000     -15.1361799   -63.8294601   32.3856697    -31.8046398   -65.3569794   98.6629562    -17.0240898   -168.2743988  
765000000     -15.0728798   -64.4402618   32.3751907    -32.5165291   -64.2525635   145.6405029   -17.0054302   -168.2483978  
770000000     -14.9930801   -65.3426971   32.3669395    -33.2713699   -62.2340317   146.6871033   -17.0379295   -168.2326965  
775000000     -14.9594202   -65.9951401   32.3591118    -33.9915695   -64.9792404   130.3558960   -17.0244598   -168.0056000  
780000000     -14.9068203   -66.7095108   32.3475800    -34.6992912   -61.4697189   123.1452026   -17.0392609   -168.1362000  
785000000     -14.8731098   -67.3693924   32.3410110    -35.4086494   -64.9359131   147.8834991   -17.0559998   -168.1806030  
790000000     -14.8108101   -68.0945435   32.3327904    -36.1204796   -64.4472885   153.8905029   -17.0680008   -168.1464996  
795000000     -14.7738304   -68.8618774   32.3230286    -36.8427391   -66.3869934   144.9660950   -17.0970097   -168.0747986  
800000000     -14.7066898   -69.5474930   32.3188591    -37.5308189   -61.0517693   136.5012970   -17.0982704   -167.7689056  
805000000     -14.6729002   -70.2906799   32.3166199    -38.1995201   -64.2251663   121.0074005   -17.0657501   -167.7341003  
810000000     -14.6544704   -71.0031815   32.3055992    -38.9413109   -64.2391129   117.3694000   -17.0841198   -167.8954926  
815000000     -14.5942001   -71.7411194   32.2986107    -39.6503487   -65.9653320   108.5746002   -17.0979195   -168.0693054  
820000000     -14.5943499   -72.6165771   32.2921791    -40.3366508   -61.9712601   123.9437027   -17.0850792   -167.9382935  
825000000     -14.5526695   -73.2416611   32.2812386    -41.0143013   -61.2991905   137.4315948   -17.0887108   -167.9626007  
830000000     -14.5170097   -73.9333801   32.2784119    -41.7105484   -63.7372093   143.0332947   -17.0734501   -167.8408051  
835000000     -14.5172100   -74.5159531   32.2701492    -42.3942413   -60.3993111   117.7300034   -17.1125908   -167.8708038  
840000000     -14.4696598   -75.2924881   32.2652092    -43.0814400   -64.8029785   96.9364929    -17.0972595   -167.6864929  
845000000     -14.4751396   -76.0834427   32.2566795    -43.7506485   -64.8914413   121.9436035   -17.0937500   -167.8820038  
850000000     -14.4280500   -76.7156830   32.2532005    -44.4488602   -63.3104401   101.6811981   -17.0685101   -167.8401947  
855000000     -14.3966103   -77.5815201   32.2464294    -45.1312790   -61.0766792   130.5343018   -17.1222000   -167.5968933  
860000000     -14.3971100   -78.1931305   32.2402382    -45.7994118   -69.3249130   139.2310028   -17.1428108   -167.9651031  
865000000     -14.3585796   -78.9927292   32.2328987    -46.4573212   -62.3489799   114.7001038   -17.1056099   -167.7229004  
870000000     -14.3304596   -79.4992065   32.2292709    -47.1122704   -64.9371414   133.5861969   -17.1369801   -167.5346985  
875000000     -14.2988100   -80.3292770   32.2212601    -47.7918510   -59.8229713   121.9216003   -17.0949497   -167.7604980  
880000000     -14.3145504   -81.1454773   32.2138901    -48.4648399   -61.5085907   114.5185013   -17.1165504   -167.7583008  
885000000     -14.2921896   -81.6719971   32.2095795    -49.1379089   -61.8484612   115.9844971   -17.1185093   -167.6033936  
890000000     -14.2627401   -82.2915497   32.2061996    -49.7757683   -63.2782707   110.6215973   -17.1521797   -167.5740967  
895000000     -14.2320099   -82.9489365   32.1947098    -50.4625397   -62.7995796   139.6101990   -17.1261902   -167.5050049  
900000000     -14.2482204   -83.8139038   32.1881790    -51.0988503   -60.3408890   122.9011002   -17.1323509   -167.7579041  
905000000     -14.2206402   -84.3670731   32.1834183    -51.7633705   -63.3428192   116.7994995   -17.1441898   -167.5637054  
910000000     -14.2154102   -85.1095963   32.1829414    -52.4007111   -61.7148209   129.9362946   -17.1265507   -167.3751068  
915000000     -14.1899300   -85.8676529   32.1719093    -53.0723610   -67.2012482   109.2259979   -17.1110191   -167.5751953  
920000000     -14.1755800   -86.3918762   32.1692581    -53.7106895   -62.4509201   114.7502975   -17.1212597   -167.5126953  
925000000     -14.1680698   -87.2149811   32.1639214    -54.3594284   -62.4519806   124.7903976   -17.1206608   -167.4972992  
930000000     -14.1586103   -87.7578735   32.1598701    -55.0007706   -62.4212303   134.8312988   -17.1173191   -167.3963928  
935000000     -14.1467695   -88.4471970   32.1519814    -55.6151009   -62.1015205   125.6228027   -17.1346703   -167.2537994  
940000000     -14.1488705   -89.1151810   32.1470718    -56.3160210   -62.9841995   130.1194000   -17.1343002   -167.3887024  
945000000     -14.1263704   -89.8294678   32.1387901    -56.9379883   -60.4576797   131.2192993   -17.0999393   -167.3121033  
950000000     -14.1199198   -90.5957489   32.1357117    -57.5750618   -61.7077217   116.2200012   -17.1238308   -167.3354950  
955000000     -14.1344099   -91.1516571   32.1293411    -58.2153282   -62.9828682   109.6917038   -17.1052895   -167.1345062  
960000000     -14.1309299   -91.7251968   32.1231995    -58.8350410   -60.7985802   108.2733002   -17.1292591   -167.1136017  
965000000     -14.1077299   -92.5067673   32.1183815    -59.4763794   -61.7353592   117.0094986   -17.1175098   -167.1363983  
970000000     -14.1207104   -93.0461273   32.1156616    -60.0896111   -62.3419418   128.1768951   -17.1397896   -167.2079010  
975000000     -14.1284904   -93.7809372   32.1081505    -60.7521019   -60.5633011   128.4060974   -17.1363792   -167.1873016  
980000000     -14.1135197   -94.3547974   32.1041603    -61.3558197   -59.9035492   130.4051056   -17.1153297   -167.1255035  
985000000     -14.1263304   -95.0948868   32.1019783    -62.0115509   -61.5176086   112.5924988   -17.1240005   -167.0838013  
990000000     -14.1025896   -95.7674637   32.0966110    -62.6115799   -62.7028313   117.4671021   -17.1323700   -167.0549927  
995000000     -14.1165400   -96.3678818   32.0947609    -63.2546387   -62.2473412   132.9700928   -17.1151905   -166.7845001  
1000000000    -14.1111898   -97.1816864   32.0877609    -63.8879585   -59.3955688   129.7299042   -17.1051693   -166.9759979  
1005000000    -14.1172504   -97.6733170   32.0842590    -64.5146713   -60.3891602   129.2028046   -17.1025505   -166.9794006  
1010000000    -14.1071901   -98.5550232   32.0816498    -65.1341705   -61.0867195   148.4857941   -17.1257191   -166.8587952  
1015000000    -14.1144600   -99.0770798   32.0719604    -65.7665787   -60.4215393   136.7588959   -17.0814400   -166.8686981  
1020000000    -14.1185198   -99.8000870   32.0704193    -66.4000320   -60.4502296   113.7862015   -17.0917492   -166.9765930  
1025000000    -14.1331701   -100.4820023  32.0653992    -67.0123062   -62.0598717   117.1203003   -17.1133308   -166.8567047  
1030000000    -14.1355305   -101.0437012  32.0590096    -67.6517105   -60.5438805   123.4514008   -17.0820904   -166.9542999  
1035000000    -14.1316500   -101.7680969  32.0593109    -68.2673264   -59.3736496   132.4842072   -17.0967197   -166.8433075  
1040000000    -14.1524096   -102.3669968  32.0537109    -68.8866501   -61.1688995   122.4759979   -17.1001701   -166.8881989  
1045000000    -14.1558504   -103.1202011  32.0491486    -69.5096893   -59.5828400   124.3724976   -17.0935993   -166.8014069  
1050000000    -14.1521301   -103.6871033  32.0428696    -70.1129303   -60.6106911   135.9653015   -17.1056805   -166.9225006  
1055000000    -14.1787701   -104.5335007  32.0382690    -70.7605591   -58.8063011   126.6320038   -17.0957909   -166.9949951  
1060000000    -14.2050695   -105.1545029  32.0342407    -71.3702469   -58.2505989   121.1381989   -17.0851898   -166.9579010  
1065000000    -14.2099705   -105.7833023  32.0277596    -71.9917068   -60.3922806   110.0401993   -17.0889797   -167.2518005  
1070000000    -14.2036695   -106.4369965  32.0260201    -72.6104126   -60.7804604   123.9443970   -17.0915794   -167.1293030  
1075000000    -14.2202902   -107.0917969  32.0193710    -73.2365723   -59.1766701   120.7528992   -17.0883102   -167.2317047  
1080000000    -14.2441502   -107.8026962  32.0121384    -73.8541565   -59.2630005   125.8743973   -17.0715103   -167.2971039  
1085000000    -14.2456799   -108.5239029  32.0115509    -74.4714966   -59.5832214   122.8009033   -17.0651894   -167.1455994  
1090000000    -14.2543802   -109.1585007  32.0098381    -75.1014481   -59.2598000   123.6829987   -17.0470695   -167.3829956  
1095000000    -14.2570696   -110.0357971  32.0021782    -75.7288437   -60.4095192   118.1538010   -17.0269699   -167.4710999  
1100000000    -14.2844296   -110.6013031  31.9973106    -76.3286133   -60.1821785   111.9122009   -17.0457497   -167.4270020  
1105000000    -14.2999496   -111.4661026  31.9937706    -76.9773331   -59.1438789   128.8213959   -17.0451508   -167.6287994  
1110000000    -14.2967300   -111.9110031  31.9871197    -77.5872726   -58.6957588   119.9039001   -17.0430298   -167.4019928  
1115000000    -14.2953396   -112.6629028  31.9834595    -78.1909866   -58.9384499   129.2707977   -17.0626202   -167.5529022  
1120000000    -14.3147001   -113.3029022  31.9763107    -78.8156128   -58.6694298   118.3938980   -17.0536804   -167.6428986  
1125000000    -14.3350897   -113.9641037  31.9712009    -79.4241333   -59.0143013   121.2631989   -17.0413494   -167.7176971  
1130000000    -14.3286695   -114.5934982  31.9682198    -80.0330124   -60.8150101   130.5581970   -17.0857296   -167.4178009  
1135000000    -14.2978096   -115.4518967  31.9702301    -80.6431274   -59.6685104   128.6889038   -17.0163097   -167.3793030  
1140000000    -14.3096704   -116.4814987  31.9641399    -81.3093414   -57.2313614   119.5427017   -16.9341602   -167.8777008  
1145000000    -14.3380899   -116.9565964  31.9557495    -81.9210892   -60.3070717   118.5714035   -16.9463997   -167.8309937  
1150000000    -14.3604498   -117.7745972  31.9463100    -82.5445938   -59.3755798   113.0227966   -16.9566002   -168.2548065  
1155000000    -14.3839903   -118.5166016  31.9425507    -83.1765518   -58.5396690   111.1906967   -16.9377098   -168.3168030  
1160000000    -14.3270903   -119.1399994  31.9341507    -83.7960510   -61.9559593   140.2752991   -16.9128208   -168.2631073  
1165000000    -14.4057798   -119.9076004  31.9267902    -84.4206467   -58.1102791   118.2991028   -16.9126892   -168.5254059  
1170000000    -14.4163904   -120.5482025  31.9193401    -85.0368271   -57.6666107   112.0818024   -16.9072609   -168.6195984  
1175000000    -14.4069300   -121.3168030  31.9146900    -85.6516800   -59.1016884   125.7867966   -16.8710709   -168.7407990  
1180000000    -14.4212503   -121.9560013  31.9090500    -86.2735672   -58.8654518   123.8737030   -16.8707294   -168.9505005  
1185000000    -14.4066000   -122.5324020  31.9044895    -86.8791275   -58.3029900   111.6799011   -16.8469791   -168.8679962  
1190000000    -14.4322395   -123.4651031  31.8976498    -87.5089264   -60.9141197   126.8803024   -16.8509693   -169.0930939  
1195000000    -14.4477100   -123.8746033  31.8907299    -88.1231995   -59.9454308   124.7381973   -16.8232498   -169.1094971  
1200000000    -14.4161997   -124.6511002  31.8849506    -88.7310867   -57.2518883   120.0435028   -16.7926407   -169.0724945  
1205000000    -14.4419899   -125.3373032  31.8780804    -89.3632202   -57.8143806   116.0183029   -16.8092899   -169.2854004  
1210000000    -14.4433699   -126.0914993  31.8689308    -89.9983063   -57.8585396   118.9418030   -16.7732201   -169.4497986  
1215000000    -14.4321499   -126.5843964  31.8651791    -90.6259384   -58.5582695   129.6192932   -16.7677193   -169.3952942  
1220000000    -14.4352198   -127.1684036  31.8510399    -91.2393570   -60.6372986   120.3093033   -16.7711697   -169.7066040  
1225000000    -14.4621296   -128.0453033  31.8446693    -91.8714523   -57.8172607   116.2088013   -16.7307396   -169.7792969  
1230000000    -14.4672699   -128.7238007  31.8365707    -92.4901123   -58.1965790   115.7642975   -16.7386398   -169.9257965  
1235000000    -14.4784899   -129.3209991  31.8317108    -93.0739670   -57.5834618   116.4380035   -16.7194805   -170.2033997  
1240000000    -14.4743004   -130.0000000  31.8228397    -93.6880569   -57.6385689   118.0739975   -16.7021294   -170.2400970  
1245000000    -14.4686499   -130.5841980  31.8186092    -94.3130264   -58.2883110   126.0822983   -16.6874104   -170.3226013  
1250000000    -14.4783401   -131.2433014  31.8091507    -94.9302826   -57.6776199   112.9280014   -16.6879292   -170.3919067  
1255000000    -14.4883299   -131.8114929  31.7997398    -95.5497284   -58.2749710   122.6380997   -16.6393795   -170.6425934  
1260000000    -14.4910402   -132.4557037  31.7902794    -96.1730728   -57.8746681   117.8828964   -16.6317692   -170.6932983  
1265000000    -14.5107002   -133.1640015  31.7810898    -96.7711182   -58.5521889   116.7925034   -16.6431999   -170.7648010  
1270000000    -14.5011301   -133.6114960  31.7777805    -97.3886719   -58.6673508   124.5136032   -16.6272907   -170.7463074  
1275000000    -14.4726295   -134.3255005  31.7713509    -98.0175018   -57.6470795   120.4496002   -16.5536709   -170.6428070  
1280000000    -14.4943705   -135.1761017  31.7590294    -98.6783066   -57.2175903   119.9580002   -16.5414104   -171.1878052  
1285000000    -14.5289898   -135.7382965  31.7471409    -99.2724228   -57.4925308   114.5307007   -16.5506096   -171.4071045  
1290000000    -14.5422802   -136.2328033  31.7364197    -99.8946075   -56.6982002   121.2976990   -16.5280895   -171.4250946  
1295000000    -14.5503397   -136.8959045  31.7257404    -100.5061035  -57.5170517   114.0186005   -16.5584698   -171.7483978  
1300000000    -14.5402498   -137.3842010  31.7166309    -101.1373978  -56.9300003   115.1007004   -16.5030994   -171.7958984  
1305000000    -14.5565596   -138.0729980  31.7076092    -101.7558975  -56.6273308   123.3286972   -16.5113602   -171.8923035  
1310000000    -14.5705299   -138.5330048  31.6960201    -102.3833008  -57.6753502   119.0155029   -16.5288200   -172.0682068  
1315000000    -14.5861397   -139.2066956  31.6866703    -102.9723969  -56.7406006   120.3728027   -16.5263195   -172.2012024  
1320000000    -14.5942202   -139.7095032  31.6764908    -103.5790024  -56.4077301   119.1174011   -16.5129910   -172.4481049  
1325000000    -14.5997801   -140.1275940  31.6649799    -104.2145996  -59.1726608   108.8528976   -16.4903793   -172.4530029  
1330000000    -14.6131897   -140.9685974  31.6545696    -104.8289032  -57.8223114   121.2655029   -16.4901104   -172.7427063  
1335000000    -14.6454296   -141.4996948  31.6413307    -105.4319000  -57.0498009   113.5707016   -16.4898109   -172.8737030  
1340000000    -14.6524696   -142.1221924  31.6333008    -106.0578995  -58.2949104   125.2481995   -16.4506207   -173.1457977  
1345000000    -14.6642303   -142.6417999  31.6224709    -106.6519012  -56.9393997   119.0343018   -16.4607391   -173.1813965  
1350000000    -14.6833096   -143.0874023  31.6083794    -107.2833023  -56.3354111   117.3868027   -16.4675407   -173.4902039  
1355000000    -14.6892300   -143.6811066  31.5989304    -107.9075012  -56.0320892   120.3256989   -16.4561806   -173.5780945  
1360000000    -14.7055597   -144.2434998  31.5867805    -108.5122986  -56.4743500   117.1792984   -16.4735394   -173.8977966  
1365000000    -14.7175903   -144.7463989  31.5765991    -109.1174011  -55.1753998   114.5273972   -16.4498405   -173.9752960  
1370000000    -14.7394400   -145.4308929  31.5621891    -109.7363968  -56.4436989   118.2230988   -16.4676609   -174.1237030  
1375000000    -14.7601299   -145.8486938  31.5555305    -110.3591995  -56.9700203   119.3266983   -16.4873009   -174.4864960  
1380000000    -14.7898397   -146.3287964  31.5406208    -110.9465027  -57.3438988   110.6918030   -16.4918995   -174.7816010  
1385000000    -14.8089104   -146.9875031  31.5291805    -111.5893021  -55.4271507   110.6587982   -16.4836006   -175.0507050  
1390000000    -14.8237104   -147.5467987  31.5142307    -112.1975021  -57.4398689   113.3563995   -16.4854393   -175.1531067  
1395000000    -14.8328695   -148.0316925  31.5039005    -112.8285980  -56.7316093   106.6443024   -16.4962997   -175.4544067  
1400000000    -14.8379402   -148.5476074  31.4899006    -113.4378967  -55.5279694   109.2314987   -16.4946804   -175.8771057  
1405000000    -14.8759403   -149.0124969  31.4776592    -114.0210037  -55.7577896   104.5830002   -16.4900608   -175.9799957  
1410000000    -14.8771896   -149.6015930  31.4618206    -114.6523972  -57.4620285   111.3830032   -16.5066204   -176.4208984  
1415000000    -14.8982897   -150.2221985  31.4518909    -115.2553024  -55.3850708   110.6940994   -16.5321407   -176.4284973  
1420000000    -14.9292603   -150.8085938  31.4369392    -115.8946991  -55.8254013   112.1397018   -16.5272293   -176.7980957  
1425000000    -14.9520502   -151.2084961  31.4230709    -116.5046997  -54.7243805   104.8243027   -16.5185909   -177.1566010  
1430000000    -14.9599104   -151.7958984  31.4095898    -117.1231995  -56.1228104   114.3609009   -16.5200901   -177.4868927  
1435000000    -14.9989796   -152.2086945  31.3973198    -117.7369995  -54.5046310   112.1361008   -16.5538902   -177.8787994  
1440000000    -15.0111904   -152.7733002  31.3806591    -118.3579025  -55.6263809   105.9095001   -16.5409298   -178.2104034  
1445000000    -15.0272102   -153.2476959  31.3684692    -118.9658966  -56.2988396   105.1759033   -16.5518894   -178.5043945  
1450000000    -15.0461302   -153.5832977  31.3491001    -119.6019974  -54.4263306   109.4812012   -16.5724392   -178.8437042  
1455000000    -15.0690298   -154.3081055  31.3344402    -120.2109985  -54.4523010   105.0888977   -16.5762901   -179.1923065  
