!Mini-Circuits Laboratory
!S-Parameters
!Model: PMA-545G2+
!Run / Lot / Date Code: N/A / N/A / NA
!Fixture: NA; TEST BOARD: TB-607+
!AUTO PORT EXTENSION DONE: PORT<1>=120.99ps; PORT<2>=143.047ps
!Network Analyzer: PNA-X N5242A - 423 4 ports;  Serial number: 71256
!Date: 1/11/2011
!S/N: Unit# 3
!
# Hz  S  dB  R  50
!Frequency    S11 dB        S11 Deg       S21 dB        S21 Deg       S12 dB        S12 Deg       S22 dB        S22 Deg       
700000000     -12.8877201   -60.9308090   31.6306000    -23.0831795   -64.7429581   137.7209015   -19.3580608   -158.5731049  
705000000     -12.8340502   -61.5035400   31.6130104    -23.8540306   -63.4334297   134.7214050   -19.2965603   -158.2590942  
710000000     -12.7993002   -62.1033401   31.6085205    -24.5999393   -68.3718185   118.7584991   -19.2727108   -157.9347992  
715000000     -12.7308197   -62.5442390   31.5922203    -25.3351498   -64.6779633   156.7398071   -19.2928200   -157.9125977  
720000000     -12.6894703   -63.2676010   31.5788097    -26.0604591   -62.6463509   137.5357971   -19.2490101   -157.5991058  
725000000     -12.6477804   -63.7322311   31.5675602    -26.8150291   -63.8605003   125.5551987   -19.2797508   -157.3215027  
730000000     -12.6137896   -64.3390732   31.5561409    -27.5208607   -66.0386505   137.0166016   -19.2357903   -157.2561035  
735000000     -12.5765896   -64.9877167   31.5417805    -28.2451706   -64.4460907   133.9546967   -19.1887093   -157.0794983  
740000000     -12.5399704   -65.5774231   31.5279598    -28.9661102   -67.1039734   146.9844055   -19.1999702   -157.1947021  
745000000     -12.5074100   -66.0528030   31.5199203    -29.6596107   -64.1884384   156.9364929   -19.2013607   -156.5198975  
750000000     -12.4539700   -66.6514206   31.5094891    -30.3745804   -62.4712791   140.9898987   -19.1584396   -156.3094025  
755000000     -12.4358997   -67.3250427   31.4986706    -31.0999107   -68.2222290   131.8269043   -19.1622791   -156.2602997  
760000000     -12.4071598   -67.8162766   31.4882507    -31.7832603   -66.9605637   160.1006012   -19.1291199   -155.8334045  
765000000     -12.3772402   -68.3841934   31.4755402    -32.4542198   -64.4941788   144.9627991   -19.1147499   -155.8773956  
770000000     -12.3173504   -69.0423431   31.4657402    -33.1701889   -63.8950996   138.5184021   -19.1382694   -155.6800995  
775000000     -12.3191500   -69.6238327   31.4553909    -33.8545914   -62.9934692   124.8883972   -19.0907497   -155.4956055  
780000000     -12.2761803   -70.1694412   31.4416008    -34.5211601   -65.1916580   159.0299072   -19.0760498   -155.6596985  
785000000     -12.2676296   -70.6217575   31.4335194    -35.1921310   -65.4158401   150.7929993   -19.0623493   -155.4703979  
790000000     -12.2367697   -71.2630386   31.4239693    -35.8720398   -64.2099915   129.3802032   -19.0618591   -155.0202942  
795000000     -12.2221804   -71.8290100   31.4113007    -36.5448303   -63.0424385   153.9983063   -19.0848103   -154.7377014  
800000000     -12.1611500   -72.4775467   31.4095097    -37.1911316   -64.3604736   141.6100006   -19.0617504   -154.3065033  
805000000     -12.1681404   -73.0039291   31.4032307    -37.8439217   -68.4926071   125.4834976   -19.0216007   -154.2328949  
810000000     -12.1442499   -73.5830078   31.3909397    -38.5377617   -63.1432114   129.9602966   -18.9778194   -154.0688934  
815000000     -12.1314602   -74.2173615   31.3821507    -39.2106590   -64.7618408   110.1399994   -18.9721603   -154.1219025  
820000000     -12.1156702   -74.8489227   31.3750095    -39.8628082   -64.6509018   163.4020996   -18.9806709   -153.8211975  
825000000     -12.0938301   -75.3027496   31.3624401    -40.5137100   -65.4954071   131.2518005   -18.9720993   -153.7534943  
830000000     -12.0893898   -75.8229523   31.3571205    -41.1733208   -61.9119987   138.9864044   -18.9441299   -153.5484009  
835000000     -12.0786695   -76.4176025   31.3469391    -41.8115082   -61.9844894   141.9306946   -18.9163208   -153.2550964  
840000000     -12.0553303   -77.0372162   31.3404808    -42.4679985   -65.1754532   131.5608063   -18.9243393   -153.1974030  
845000000     -12.0523005   -77.6265564   31.3330307    -43.1058617   -63.4121513   138.7801056   -18.9218006   -152.9508057  
850000000     -12.0411997   -78.1574631   31.3266506    -43.7548218   -64.4148636   134.0518951   -18.8810692   -152.8795929  
855000000     -12.0160704   -78.7472076   31.3162708    -44.4036407   -61.2179489   130.4803925   -18.8738899   -152.5079956  
860000000     -12.0163298   -79.3564835   31.3110809    -45.0480194   -65.6574097   143.6493073   -18.8972893   -152.6425018  
865000000     -11.9928102   -79.9284973   31.3038006    -45.6681290   -61.4114494   126.4283981   -18.8413506   -152.2015991  
870000000     -11.9629898   -80.3621368   31.2982502    -46.2852402   -60.7293396   151.6466980   -18.8445492   -151.4506989  
875000000     -11.9815397   -80.9512787   31.2882805    -46.9415207   -63.2058792   128.2816925   -18.8443794   -151.8484955  
880000000     -11.9852304   -81.5105591   31.2811699    -47.5824890   -63.9017410   133.3636017   -18.7904091   -151.7532043  
885000000     -11.9549398   -82.1202698   31.2776108    -48.2199707   -61.5846596   155.6446991   -18.7618294   -151.4170990  
890000000     -11.9561005   -82.6778870   31.2711697    -48.8238792   -63.3704491   135.4266052   -18.7947407   -151.4434052  
895000000     -11.9496098   -83.1652908   31.2588596    -49.4738197   -65.4067535   145.3014069   -18.7738209   -151.2895050  
900000000     -11.9460497   -83.8142014   31.2526798    -50.0849800   -64.5937881   128.4302063   -18.7600307   -151.2088013  
905000000     -11.9473400   -84.3412628   31.2460804    -50.7209511   -62.5552292   124.1080017   -18.7521591   -150.8710022  
910000000     -11.9527597   -84.9119797   31.2474899    -51.3063812   -61.3203201   123.0940018   -18.7371693   -150.6851959  
915000000     -11.9360104   -85.4684067   31.2343292    -51.9618416   -63.5094109   118.7761002   -18.6789093   -150.6329956  
920000000     -11.9361095   -86.0493088   31.2308598    -52.5733986   -63.3763390   131.8491058   -18.7062302   -150.5549011  
925000000     -11.9304800   -86.5994034   31.2246609    -53.1854706   -61.7890091   119.5459976   -18.6717606   -150.1952057  
930000000     -11.9156103   -87.1250000   31.2200603    -53.8004112   -61.2898598   132.2429962   -18.6609192   -150.0964050  
935000000     -11.9227505   -87.7317429   31.2121906    -54.3800583   -60.8778992   124.8348999   -18.6426105   -150.0879974  
940000000     -11.9149799   -88.1831131   31.2074795    -55.0676498   -61.7690392   149.4546051   -18.6471100   -149.8914948  
945000000     -11.9214802   -88.7579269   31.2001896    -55.6637688   -62.0628815   122.3180008   -18.5802498   -149.9286041  
950000000     -11.9182396   -89.2734375   31.1953793    -56.2578087   -66.0131531   110.0485992   -18.6306705   -149.6179047  
955000000     -11.9153500   -90.0369415   31.1890697    -56.8841019   -61.7702789   131.0890961   -18.5701504   -149.4757996  
960000000     -11.9241199   -90.4564667   31.1808395    -57.4785004   -61.1660690   131.4532928   -18.5964909   -149.2577057  
965000000     -11.9176102   -91.0303497   31.1766109    -58.0993195   -61.9560890   121.2316971   -18.5676403   -149.1708069  
970000000     -11.9215803   -91.4670029   31.1713905    -58.6967812   -59.4420204   119.8081970   -18.5676899   -149.0449066  
975000000     -11.9335604   -92.1225967   31.1625595    -59.3145714   -61.7240601   122.3024979   -18.5495796   -149.0787964  
980000000     -11.9387999   -92.5914688   31.1563206    -59.8903503   -63.8272209   126.3700027   -18.5300503   -148.8240967  
985000000     -11.9187403   -93.1322937   31.1554604    -60.5288391   -61.5430298   140.4757996   -18.5298195   -148.7176971  
990000000     -11.9209099   -93.8277817   31.1484795    -61.1043396   -60.4724083   124.3862991   -18.4676800   -148.5191040  
995000000     -11.9405699   -94.3135529   31.1467094    -61.7268219   -60.3986092   126.6931000   -18.4511395   -148.3966064  
1000000000    -11.9409704   -94.9764862   31.1383705    -62.3382797   -58.8807793   136.8350983   -18.4275398   -148.2359924  
1005000000    -11.9474602   -95.2907562   31.1329899    -62.9455414   -61.9552689   125.8787994   -18.4248409   -148.2467041  
1010000000    -11.9317398   -95.9366684   31.1307297    -63.5268402   -61.1157990   121.4657974   -18.4077702   -148.2189026  
1015000000    -11.9428301   -96.4522171   31.1177502    -64.1391220   -61.3736115   122.7944031   -18.3831100   -148.0608063  
1020000000    -11.9636297   -97.0676880   31.1172695    -64.7379227   -59.8465691   141.2165985   -18.3723106   -148.0625000  
1025000000    -11.9532804   -97.5642700   31.1103592    -65.3245010   -63.2085991   126.7927017   -18.3758202   -148.0391998  
1030000000    -11.9644899   -98.1293793   31.1025391    -65.9409027   -60.2901192   128.5413971   -18.3241196   -148.0818939  
1035000000    -11.9490995   -98.6686935   31.1030197    -66.5344086   -58.4262199   134.1757050   -18.3028107   -147.8059998  
1040000000    -11.9663200   -99.1530533   31.0944595    -67.1193237   -62.0006905   135.0135956   -18.3033791   -147.9087067  
1045000000    -11.9700098   -99.7250671   31.0903492    -67.7214508   -59.0350990   132.2261963   -18.2804298   -147.7747040  
1050000000    -11.9934902   -100.2266998  31.0839806    -68.3059387   -60.5029182   112.2265015   -18.2601299   -147.7225037  
1055000000    -11.9928102   -100.7946014  31.0779095    -68.9233704   -60.1564598   134.8955994   -18.2560005   -147.8959961  
1060000000    -11.9951401   -101.2844009  31.0721092    -69.5113831   -59.4685402   130.8206940   -18.2324104   -147.4812012  
1065000000    -12.0099096   -101.8326035  31.0655308    -70.1018295   -60.1582298   130.1302032   -18.2130699   -147.5635071  
1070000000    -12.0219603   -102.4020996  31.0620193    -70.7090607   -60.0771408   123.5988007   -18.2059002   -147.5693054  
1075000000    -12.0278301   -102.8719025  31.0551205    -71.3111191   -58.9729309   128.8596954   -18.1797504   -147.6128998  
1080000000    -12.0380802   -103.3737030  31.0473309    -71.8919830   -60.2075500   118.1765976   -18.1772003   -147.6647034  
1085000000    -12.0446396   -103.9212036  31.0461102    -72.4872131   -58.7342796   127.4279022   -18.1259308   -147.2947998  
1090000000    -12.0453701   -104.4906006  31.0417309    -73.0836563   -59.1300583   134.1356049   -18.1180992   -147.5807953  
1095000000    -12.0563097   -105.0117035  31.0337906    -73.6866837   -60.7742691   127.5058975   -18.0745392   -147.4924011  
1100000000    -12.0732098   -105.4821014  31.0274792    -74.2611465   -60.6543999   124.5777969   -18.0610504   -147.4212036  
1105000000    -12.0820398   -106.0839996  31.0235405    -74.8891068   -58.3852806   131.7637939   -18.0935497   -147.5061951  
1110000000    -12.0749302   -106.5251007  31.0178108    -75.4724884   -59.6302605   132.0711975   -18.0743904   -147.3303070  
1115000000    -12.0880604   -107.0277023  31.0129795    -76.0520630   -59.3397102   127.4785995   -18.0628109   -147.2863007  
1120000000    -12.1072502   -107.5129013  31.0040302    -76.6557083   -60.2643089   132.2230072   -18.0587292   -147.4889069  
1125000000    -12.1192703   -107.9728012  30.9981098    -77.2380829   -57.4747810   127.4078979   -18.0166893   -147.4183960  
1130000000    -12.1135101   -108.5497971  30.9964504    -77.8300705   -59.1406898   129.1255035   -18.0043392   -147.1121063  
1135000000    -12.1156301   -109.1996002  30.9936295    -78.4363403   -58.6507912   129.7765961   -17.9424095   -147.2714996  
1140000000    -12.1344204   -109.6727982  30.9879303    -79.0366974   -60.6103096   136.6918030   -17.9325809   -147.3208008  
1145000000    -12.1422300   -110.2097015  30.9773293    -79.6335526   -59.1531715   137.1687012   -17.9044704   -147.2702026  
1150000000    -12.1781397   -110.8072968  30.9697704    -80.2283325   -58.6841888   125.9072037   -17.9003506   -147.6389008  
1155000000    -12.1819201   -111.2068024  30.9630203    -80.8313065   -59.5167694   133.3569946   -17.8997002   -147.5180969  
1160000000    -12.1965303   -111.7496033  30.9549904    -81.4265976   -58.4290199   126.5595016   -17.8850708   -147.6896973  
1165000000    -12.2151403   -112.2484970  30.9492798    -82.0214462   -59.8695297   117.5492020   -17.8677902   -147.7120056  
1170000000    -12.2465696   -112.7600021  30.9402905    -82.6269073   -57.7016106   119.8069992   -17.8593903   -147.7503967  
1175000000    -12.2482004   -113.2922974  30.9336205    -83.2211609   -58.2098389   124.0614014   -17.8431606   -147.8968964  
1180000000    -12.2773600   -113.7799988  30.9280605    -83.8150864   -57.6301804   136.3477020   -17.8260307   -147.9497986  
1185000000    -12.2848301   -114.2244034  30.9224091    -84.3996811   -57.1277313   135.4613037   -17.8254795   -147.8475037  
1190000000    -12.2850304   -114.8600998  30.9145393    -85.0002136   -58.6441917   118.9484024   -17.8121204   -148.0626984  
1195000000    -12.3064003   -115.2089996  30.9073009    -85.5969009   -58.8903618   128.7492981   -17.8027096   -148.1228027  
1200000000    -12.3213902   -115.8199997  30.8996906    -86.1714172   -58.0984993   121.3687973   -17.7664509   -148.1488953  
1205000000    -12.3333302   -116.2817001  30.8928108    -86.7802429   -57.7572784   124.5507965   -17.7714596   -148.3764038  
1210000000    -12.3683300   -116.7642975  30.8848591    -87.3907394   -59.5044098   118.2954025   -17.7387791   -148.5063019  
1215000000    -12.3829098   -117.1932983  30.8794708    -88.0011368   -58.6722298   115.1214981   -17.7356396   -148.6815033  
1220000000    -12.3876696   -117.8012009  30.8663197    -88.5893631   -57.5235786   122.0659027   -17.7325802   -148.8078003  
1225000000    -12.4017296   -118.3655014  30.8603706    -89.1913681   -57.6690292   126.0223007   -17.6892204   -148.8289032  
1230000000    -12.4166498   -118.7198029  30.8516197    -89.7928009   -58.4881592   117.2029037   -17.7051296   -148.8193970  
1235000000    -12.4281702   -119.3333969  30.8443794    -90.3684769   -58.8079109   122.3282013   -17.7028694   -149.0615997  
1240000000    -12.4371099   -119.8700027  30.8357201    -90.9555130   -57.6510315   136.9407959   -17.6689606   -149.2178955  
1245000000    -12.4664297   -120.2195969  30.8304901    -91.5521164   -56.9483299   126.4294968   -17.6810493   -149.3377991  
1250000000    -12.4905596   -120.7198029  30.8192806    -92.1481934   -56.2105217   122.1372986   -17.6679897   -149.6038971  
1255000000    -12.5114298   -121.2164993  30.8100395    -92.7608032   -57.7329292   136.7277985   -17.6613903   -149.7241058  
1260000000    -12.5132399   -121.6501007  30.8006496    -93.3552475   -56.2228813   123.2723999   -17.6667309   -149.8177032  
1265000000    -12.5464497   -122.2377014  30.7897491    -93.9277267   -57.2859802   125.5171967   -17.6713696   -149.9118042  
1270000000    -12.5433502   -122.6094971  30.7855301    -94.5256195   -56.9861107   123.5985031   -17.6672001   -149.9810028  
1275000000    -12.5466204   -123.1993027  30.7774601    -95.1343765   -56.3349304   119.4929962   -17.5688095   -150.1396942  
1280000000    -12.5848904   -123.8393021  30.7668095    -95.7582626   -56.0579300   125.2981033   -17.5842209   -150.5493011  
1285000000    -12.6279097   -124.2431030  30.7544994    -96.3355865   -56.9413986   117.4773026   -17.5955391   -151.0110931  
1290000000    -12.6455202   -124.6845016  30.7437096    -96.9423828   -55.6850395   128.6815033   -17.5808296   -151.0540924  
1295000000    -12.6668701   -125.2191010  30.7335701    -97.5408096   -56.6267509   116.8824005   -17.6057892   -151.4418945  
1300000000    -12.6826696   -125.5962982  30.7235203    -98.1392899   -56.5691719   122.6241989   -17.5753002   -151.4980011  
1305000000    -12.6924200   -126.1905975  30.7131691    -98.7362900   -55.7457504   129.9290924   -17.5640507   -151.6894989  
1310000000    -12.7384005   -126.5438995  30.7024899    -99.3492737   -56.4819984   116.6690979   -17.5979004   -152.0299988  
1315000000    -12.7300196   -127.1830978  30.6931801    -99.9133682   -56.3867416   133.2341003   -17.5701199   -152.0077972  
1320000000    -12.7604599   -127.4468994  30.6813698    -100.5084991  -57.0551491   122.8053970   -17.5891609   -152.2740021  
1325000000    -12.7960796   -127.8972015  30.6696091    -101.1233978  -56.5502396   120.1685028   -17.5977192   -152.7458038  
1330000000    -12.8086901   -128.4895935  30.6585293    -101.7182007  -57.3736916   122.1141968   -17.5850506   -152.7400055  
1335000000    -12.8392696   -128.8764954  30.6454391    -102.3062973  -56.2595100   123.5194016   -17.5964909   -152.8995972  
1340000000    -12.8554497   -129.2073975  30.6380692    -102.9001007  -55.4260101   114.6593018   -17.5564709   -153.1580048  
1345000000    -12.8686199   -129.7861023  30.6276894    -103.5009003  -56.3586311   126.6272964   -17.5528698   -153.6157990  
1350000000    -12.8919296   -130.3748932  30.6112003    -104.1272964  -56.9342308   124.9626007   -17.5778999   -154.1873932  
1355000000    -12.9177303   -130.8085938  30.6008701    -104.7254028  -56.5389709   113.8603973   -17.5704002   -154.3997040  
1360000000    -12.9482698   -131.2920074  30.5873604    -105.3186035  -56.8180008   119.6557007   -17.5996094   -154.6947021  
1365000000    -12.9787302   -131.7131042  30.5747890    -105.9057999  -56.0207710   116.8350983   -17.5842495   -154.8668060  
1370000000    -13.0237703   -132.1764984  30.5600395    -106.5036011  -57.8830910   115.4862976   -17.6135101   -155.2077942  
1375000000    -13.0247402   -132.6029053  30.5510998    -107.1163025  -55.7588882   133.8630981   -17.5847893   -155.3500977  
1380000000    -13.0607500   -133.0375061  30.5362206    -107.6934967  -55.4113693   120.6731033   -17.5839291   -155.8258972  
1385000000    -13.1052904   -133.4794006  30.5236607    -108.3137970  -55.7234192   112.5180969   -17.6084309   -156.0933990  
1390000000    -13.1230202   -134.0227966  30.5057392    -108.9040985  -56.4739609   128.5740967   -17.5872707   -156.4960938  
1395000000    -13.1440201   -134.4120026  30.4946899    -109.5186996  -56.1529198   119.1227036   -17.5999908   -156.8455963  
1400000000    -13.1547699   -134.8854980  30.4802494    -110.1107025  -55.0640297   119.7703018   -17.6347504   -157.3144989  
1405000000    -13.1954098   -135.2971954  30.4643898    -110.6832962  -55.9738083   122.0220032   -17.6281109   -157.5930939  
1410000000    -13.2417202   -135.7353973  30.4498005    -111.2890015  -54.8860817   118.4469986   -17.6650009   -157.9143066  
1415000000    -13.2357101   -136.1970978  30.4375305    -111.8895035  -56.7928009   120.0880966   -17.6858597   -158.0541992  
1420000000    -13.2861996   -136.5939026  30.4197292    -112.4945984  -56.3466682   119.3973999   -17.6792507   -158.3507996  
1425000000    -13.3109198   -137.0868988  30.4028893    -113.0842972  -56.1287689   116.6929016   -17.6763897   -158.7873993  
1430000000    -13.3507204   -137.4085999  30.3890705    -113.6781006  -55.1651993   117.0186005   -17.6813602   -159.2106018  
1435000000    -13.3740702   -137.8157043  30.3758602    -114.2739029  -54.6857109   113.7304993   -17.7269993   -159.7039948  
1440000000    -13.3970203   -138.3011932  30.3580208    -114.8849030  -55.6458282   116.9707031   -17.7146397   -160.0081024  
1445000000    -13.4315901   -138.6795959  30.3444691    -115.4633026  -54.9399681   111.8598022   -17.7045708   -160.3609924  
1450000000    -13.4626198   -138.9817963  30.3236694    -116.0848007  -55.5968819   119.1300964   -17.7344208   -160.9114075  
1455000000    -13.4973497   -139.5390930  30.3084507    -116.6874008  -54.7869110   115.3491974   -17.7580605   -161.2935028  
