!Mini-Circuits Laboratory
!S-Parameters
!Model: PMA-545G2+
!Run / Lot / Date Code: N/A / N/A / NA
!Fixture: NA; TEST BOARD: TB-607+
!AUTO PORT EXTENSION DONE: PORT<1>=120.99ps; PORT<2>=143.047ps
!Network Analyzer: PNA-X N5242A - 423 4 ports;  Serial number: 71256
!Date: 1/11/2011
!S/N: Unit# 3
!
# Hz  S  dB  R  50
!Frequency    S11 dB        S11 Deg       S21 dB        S21 Deg       S12 dB        S12 Deg       S22 dB        S22 Deg       
700000000     -12.9240599   -59.9994392   31.5720806    -22.7179604   -68.2787170   144.6761017   -18.9960098   -160.1159973  
705000000     -12.8725700   -60.6064682   31.5543499    -23.4952393   -64.4619064   138.4608002   -18.9391994   -159.9205017  
710000000     -12.8170996   -61.3187904   31.5479507    -24.2416992   -64.6427231   143.4160004   -18.9106903   -159.7536926  
715000000     -12.7667198   -61.6833992   31.5346508    -24.9799004   -72.1550369   91.1088562    -18.9378796   -159.4403992  
720000000     -12.7198601   -62.4097710   31.5204391    -25.7094097   -65.1630096   130.6688995   -18.8980598   -159.5234070  
725000000     -12.6735601   -62.9149017   31.5103607    -26.4450397   -67.1643524   134.8253937   -18.8989906   -159.1065979  
730000000     -12.6297102   -63.4901199   31.4997807    -27.1573696   -64.3178864   114.6560974   -18.8790894   -159.0677948  
735000000     -12.5905504   -64.2016068   31.4852505    -27.8810806   -64.2256088   130.3224945   -18.8684807   -158.8388062  
740000000     -12.5599899   -64.8125229   31.4719009    -28.6030903   -67.5005722   152.3786926   -18.8724709   -158.9808044  
745000000     -12.5359697   -65.2987518   31.4645805    -29.2989292   -67.3578491   140.2319031   -18.8550606   -158.6132050  
750000000     -12.4859304   -65.8683777   31.4536095    -30.0144596   -69.5265732   126.1141968   -18.8514996   -158.3540039  
755000000     -12.4592896   -66.5797806   31.4433994    -30.7304707   -65.8028564   154.2675934   -18.8164501   -157.9535980  
760000000     -12.4281797   -67.1208115   31.4330196    -31.4229298   -66.5050964   108.6173019   -18.7920494   -157.9707031  
765000000     -12.3908501   -67.6005020   31.4212704    -32.0947685   -67.9348907   143.5334930   -18.7873402   -157.7691040  
770000000     -12.3486099   -68.2832718   31.4121494    -32.8106918   -65.0591431   134.0308990   -18.8029003   -157.6723938  
775000000     -12.3269100   -68.7939987   31.4025993    -33.4871216   -64.5057983   133.3249969   -18.7488403   -157.3527985  
780000000     -12.2908297   -69.3554916   31.3899593    -34.1552391   -69.6478806   124.9349976   -18.7310505   -157.4541016  
785000000     -12.2785997   -69.8796692   31.3820000    -34.8318901   -62.8754196   135.6714020   -18.7798195   -157.1329041  
790000000     -12.2475996   -70.5022430   31.3729305    -35.5035706   -67.0157166   156.3206940   -18.7578602   -157.2315979  
795000000     -12.2303896   -71.1495590   31.3612404    -36.1850204   -61.0262108   137.5254059   -18.7832298   -156.6963959  
800000000     -12.1767902   -71.6658173   31.3586903    -36.8165703   -61.8623810   153.9835052   -18.7570992   -156.2335968  
805000000     -12.1797400   -72.2538223   31.3537502    -37.4817505   -65.5558319   133.7991943   -18.7315502   -156.2071991  
810000000     -12.1572704   -72.8467712   31.3401699    -38.1685486   -63.8831406   127.1792984   -18.6906891   -156.0818939  
815000000     -12.1353998   -73.4010620   31.3313904    -38.8472786   -62.8634491   150.0964050   -18.6774693   -155.8972015  
820000000     -12.1322403   -74.0766220   31.3249397    -39.4861107   -63.7010918   139.2431946   -18.6925297   -155.8511963  
825000000     -12.1137199   -74.5260391   31.3132401    -40.1376419   -63.5222588   140.6383972   -18.6569405   -155.6941986  
830000000     -12.0869703   -75.0980682   31.3084393    -40.8016014   -66.6500015   141.4125977   -18.6804104   -155.6071014  
835000000     -12.0784502   -75.6730804   31.2978497    -41.4445686   -63.6671791   118.2661972   -18.6639996   -155.3473053  
840000000     -12.0582600   -76.1596832   31.2922497    -42.0951195   -61.2376099   117.7985992   -18.6566296   -155.0635071  
845000000     -12.0734301   -76.9408417   31.2833309    -42.7280998   -63.8395996   153.0749969   -18.6302795   -155.3560944  
850000000     -12.0490103   -77.4175262   31.2792397    -43.3815689   -65.1663818   138.6739044   -18.6093998   -155.2328033  
855000000     -12.0218401   -78.0301437   31.2695599    -44.0395699   -62.7521095   137.4949951   -18.6223392   -154.8392029  
860000000     -12.0166197   -78.6784134   31.2629204    -44.6635704   -62.0128098   119.9636993   -18.6094398   -154.6230011  
865000000     -12.0123596   -79.1239471   31.2559509    -45.2916908   -62.9729996   138.6638031   -18.5826797   -154.4104004  
870000000     -11.9899101   -79.7026672   31.2507000    -45.9188194   -64.0547333   131.4452057   -18.5891800   -154.0540009  
875000000     -11.9861698   -80.3325577   31.2418995    -46.5648384   -62.7289391   118.8365021   -18.5856895   -154.2624054  
880000000     -12.0016899   -80.8302307   31.2344799    -47.2053719   -62.7963295   120.9581985   -18.5568810   -154.0128937  
885000000     -11.9735003   -81.4169922   31.2315102    -47.8373909   -61.5159187   143.0164948   -18.5327892   -153.5735016  
890000000     -11.9556398   -81.9676208   31.2247105    -48.4512901   -64.0651932   153.7913055   -18.5058193   -153.4644012  
895000000     -11.9546099   -82.4785385   31.2142200    -49.1036682   -64.4764023   125.1921005   -18.5232391   -153.4891968  
900000000     -11.9576302   -83.2053833   31.2085304    -49.6989784   -60.6935005   129.2183990   -18.5226192   -153.3657074  
905000000     -11.9612103   -83.6668472   31.2023907    -50.3369904   -62.5971909   139.7682037   -18.5071297   -153.1233063  
910000000     -11.9529495   -84.2981033   31.2020092    -50.9377594   -64.6524734   149.6253967   -18.4555397   -153.0818024  
915000000     -11.9399204   -84.7405930   31.1889191    -51.5831909   -65.4132614   124.5653992   -18.4638405   -152.9037933  
920000000     -11.9425802   -85.3085022   31.1861992    -52.1961899   -62.0879898   136.3652039   -18.4713097   -152.6806030  
925000000     -11.9391804   -85.9730835   31.1801300    -52.7982712   -63.5751190   97.8083420    -18.4382801   -152.6127014  
930000000     -11.9333897   -86.4953690   31.1767597    -53.4167709   -61.8974190   109.5582962   -18.4001598   -152.6286926  
935000000     -11.9308395   -87.0229111   31.1697407    -54.0120506   -61.8609200   121.4041977   -18.4200191   -152.2192993  
940000000     -11.9394903   -87.5643921   31.1646500    -54.6836395   -62.4360695   120.5989990   -18.4162807   -152.1829071  
945000000     -11.9360600   -88.1603088   31.1575508    -55.2759819   -59.9616585   122.7071991   -18.3700600   -152.1316071  
950000000     -11.9283304   -88.7591782   31.1532402    -55.8695488   -61.2672997   116.9947968   -18.3922291   -151.9241943  
955000000     -11.9273701   -89.3313828   31.1467705    -56.5028610   -60.6592789   121.1399994   -18.3556595   -151.8684998  
960000000     -11.9362001   -89.8016968   31.1392193    -57.1028900   -59.3103485   125.1584015   -18.3558693   -151.7131958  
965000000     -11.9197502   -90.3943634   31.1357899    -57.7208595   -59.7241707   137.4550018   -18.3551006   -151.5097961  
970000000     -11.9195700   -90.9029999   31.1303692    -58.3072701   -63.1977386   110.9957962   -18.3477898   -151.2501068  
975000000     -11.9316998   -91.4306335   31.1225605    -58.9323616   -61.1428108   132.9748993   -18.3361492   -151.4703064  
980000000     -11.9397297   -91.9355316   31.1164494    -59.5125084   -61.8946915   146.0061951   -18.3339901   -151.2151947  
985000000     -11.9315300   -92.5323410   31.1144009    -60.1463089   -61.0396614   133.6555023   -18.2920399   -151.1625977  
990000000     -11.9367399   -93.1613998   31.1094608    -60.7220306   -62.8291206   134.7117004   -18.2905903   -150.8645020  
995000000     -11.9319296   -93.7231827   31.1075306    -61.3433189   -59.3259811   135.4517059   -18.2394600   -150.8184052  
1000000000    -11.9336500   -94.1726303   31.0985909    -61.9415398   -62.3520203   139.1640015   -18.2495899   -150.6378021  
1005000000    -11.9431496   -94.6923904   31.0933704    -62.5508308   -61.4644318   137.3975067   -18.2306099   -150.5021057  
1010000000    -11.9383802   -95.3319473   31.0894203    -63.1463509   -59.9568710   128.7277069   -18.2226505   -150.5879059  
1015000000    -11.9540997   -95.8071136   31.0788803    -63.7503090   -59.1004791   119.3018036   -18.2074795   -150.3963928  
1020000000    -11.9662600   -96.3839493   31.0784206    -64.3509293   -60.6662216   123.4107971   -18.1893196   -150.4781036  
1025000000    -11.9610500   -96.9485703   31.0714092    -64.9366226   -62.1330910   139.7191925   -18.1757698   -150.3173981  
1030000000    -11.9578400   -97.5329208   31.0652504    -65.5512619   -60.2349892   129.5877075   -18.1319599   -150.4154053  
1035000000    -11.9752598   -98.0545120   31.0657501    -66.1439133   -62.2958603   131.6775970   -18.1153297   -150.1744995  
1040000000    -11.9825401   -98.5554810   31.0571308    -66.7404938   -60.8306808   120.3992004   -18.1438904   -150.3137970  
1045000000    -11.9848700   -99.1808929   31.0517998    -67.3387070   -60.6998787   116.2048035   -18.1060200   -150.1101990  
1050000000    -11.9817801   -99.6570129   31.0464401    -67.9197464   -58.7166786   128.8125000   -18.0977306   -149.8460999  
1055000000    -12.0032196   -100.2257996  31.0411701    -68.5324631   -59.6470795   126.8261032   -18.0783997   -150.0379028  
1060000000    -12.0046797   -100.6943970  31.0342102    -69.1220016   -60.0500603   133.3916016   -18.0585194   -149.8753967  
1065000000    -12.0229702   -101.2292023  31.0284996    -69.7097931   -58.7421684   130.8271027   -18.0614891   -149.8079071  
1070000000    -12.0241404   -101.7785034  31.0259094    -70.3225632   -60.5386086   141.1475983   -18.0365105   -149.7608032  
1075000000    -12.0403299   -102.2568970  31.0183697    -70.9125671   -58.5845718   122.6434021   -18.0254707   -150.0422974  
1080000000    -12.0404501   -102.7751999  31.0140591    -71.4972687   -60.4528008   123.6580963   -18.0139999   -149.9114990  
1085000000    -12.0460701   -103.3162003  31.0091496    -72.0974884   -59.2208290   125.7165985   -17.9727592   -149.8283997  
1090000000    -12.0519800   -103.8921967  31.0066395    -72.6963882   -59.8081703   127.9682999   -17.9748802   -149.7651978  
1095000000    -12.0654402   -104.4552994  30.9993992    -73.2885590   -58.5561600   131.9609985   -17.9373302   -149.8491974  
1100000000    -12.0672302   -104.9492035  30.9936504    -73.8731537   -60.6119194   127.8240967   -17.9074593   -149.6013947  
1105000000    -12.0922699   -105.4953995  30.9891605    -74.4964066   -59.9871597   114.6887970   -17.9239407   -149.9214935  
1110000000    -12.0799599   -105.8877029  30.9834900    -75.0848770   -60.2138710   137.6390991   -17.9160500   -149.6958008  
1115000000    -12.0979099   -106.4442978  30.9799900    -75.6602936   -58.9386215   117.6658020   -17.9230709   -149.6609955  
1120000000    -12.1183996   -106.9479980  30.9700298    -76.2587433   -59.0908585   122.1138992   -17.8934803   -149.7633972  
1125000000    -12.1212702   -107.4177017  30.9649200    -76.8427963   -59.9610291   122.7959976   -17.8977509   -149.8433075  
1130000000    -12.1203203   -107.9750977  30.9629498    -77.4252472   -59.9183197   129.8305969   -17.9012203   -149.3744049  
1135000000    -12.1178799   -108.6287994  30.9592896    -78.0342331   -59.6042290   130.3300018   -17.8221798   -149.5370941  
1140000000    -12.1410503   -109.1800995  30.9543991    -78.6535034   -59.7081909   127.6612015   -17.8095493   -149.7328949  
1145000000    -12.1646204   -109.6671982  30.9444809    -79.2472763   -60.2748795   123.0597992   -17.8087101   -149.7033997  
1150000000    -12.1813402   -110.2241974  30.9358902    -79.8368530   -59.6823387   124.2634964   -17.7724400   -149.8547058  
1155000000    -12.1759501   -110.6955032  30.9316292    -80.4351730   -60.0795288   142.2657013   -17.7406006   -149.7651062  
1160000000    -12.2064800   -111.2176971  30.9232502    -81.0310669   -57.7119789   126.8526001   -17.7494202   -149.9830017  
1165000000    -12.2111502   -111.6397018  30.9166298    -81.6293182   -60.0280418   122.4026031   -17.7585907   -150.1029053  
1170000000    -12.2480202   -112.2629013  30.9094696    -82.2287369   -57.8570709   125.5880966   -17.7156391   -150.1401062  
1175000000    -12.2548399   -112.8004990  30.9016399    -82.8133163   -59.0679283   133.5328979   -17.7047291   -150.0771942  
1180000000    -12.2783203   -113.3309021  30.8970909    -83.4129028   -59.5581207   135.4246063   -17.7164307   -150.1949005  
1185000000    -12.2989597   -113.7220001  30.8903503    -83.9926224   -58.4365501   138.3446960   -17.6950893   -150.2330933  
1190000000    -12.2837601   -114.2670975  30.8841991    -84.5878525   -57.6026688   128.5679932   -17.6679192   -150.3007965  
1195000000    -12.2986698   -114.6439972  30.8766003    -85.1880417   -57.6834984   127.8556976   -17.6723995   -150.4042969  
1200000000    -12.3260298   -115.1474991  30.8710594    -85.7695389   -59.0537910   132.1042938   -17.6433506   -150.3867950  
1205000000    -12.3414402   -115.7630997  30.8637199    -86.3849030   -58.0538902   127.8704987   -17.6551495   -150.5352936  
1210000000    -12.3530798   -116.3207016  30.8547993    -86.9917603   -58.0526009   128.9282074   -17.6126804   -150.8179932  
1215000000    -12.3603201   -116.8679962  30.8498306    -87.5997620   -56.8258095   129.3728027   -17.5928192   -150.7586975  
1220000000    -12.3670397   -117.3320999  30.8361206    -88.1832504   -58.1320305   128.2109985   -17.6179905   -151.0283966  
1225000000    -12.4237604   -117.7760010  30.8309002    -88.7918701   -57.4727898   114.5833969   -17.5933495   -151.2165070  
1230000000    -12.4273005   -118.2387009  30.8230896    -89.3907394   -57.8306999   122.2982025   -17.5727997   -151.1558990  
1235000000    -12.4403801   -118.7862015  30.8158398    -89.9639206   -58.0848885   122.5342026   -17.5833397   -151.3589020  
1240000000    -12.4499502   -119.2783966  30.8083591    -90.5523071   -57.5130501   118.2809982   -17.5763798   -151.4617004  
1245000000    -12.4656296   -119.6841965  30.8016109    -91.1442871   -57.0908394   119.2031021   -17.5698509   -151.5652008  
1250000000    -12.4918003   -120.2848969  30.7919807    -91.7482376   -58.2760010   126.4197998   -17.5635395   -151.8574066  
1255000000    -12.5083904   -120.7104034  30.7819901    -92.3461838   -58.1624413   115.1071014   -17.5614204   -151.8130951  
1260000000    -12.5203199   -121.1981964  30.7726498    -92.9446869   -57.1956406   121.0920029   -17.5484505   -152.0856018  
1265000000    -12.5573702   -121.6825027  30.7624302    -93.5172119   -57.8607101   127.1132965   -17.5657291   -152.2489929  
1270000000    -12.5480003   -122.1544037  30.7579994    -94.1171875   -56.5187492   114.4175034   -17.5492401   -152.1445007  
1275000000    -12.5502195   -122.7115021  30.7525997    -94.7227020   -60.0684891   132.9611053   -17.4745693   -152.5411987  
1280000000    -12.5852804   -123.3672028  30.7405300    -95.3496475   -56.5270309   116.9802017   -17.4530296   -152.9546967  
1285000000    -12.6320601   -123.7966003  30.7281895    -95.9286270   -57.1545410   109.5546036   -17.5071392   -153.3269958  
1290000000    -12.6515398   -124.1386032  30.7186604    -96.5337219   -57.1803894   121.0731964   -17.4857292   -153.2413940  
1295000000    -12.6769600   -124.6947021  30.7073803    -97.1250992   -57.1929893   114.7762985   -17.4972706   -153.5393982  
1300000000    -12.6944704   -125.1087036  30.6973591    -97.7349930   -56.8571815   118.4100037   -17.4601192   -153.7445984  
1305000000    -12.7058496   -125.6668015  30.6878605    -98.3118591   -56.8426399   121.6890030   -17.4804897   -153.8955994  
1310000000    -12.7266598   -126.0821991  30.6768208    -98.9401016   -56.5854607   120.2208023   -17.4611893   -154.2978058  
1315000000    -12.7546797   -126.6304016  30.6673393    -99.5073013   -57.0524902   124.2921982   -17.4751205   -154.3771057  
1320000000    -12.7687502   -127.0414963  30.6568298    -100.0923996  -56.7746696   129.4835968   -17.4651699   -154.4792023  
1325000000    -12.7850304   -127.5432968  30.6446896    -100.7096024  -57.4439392   132.4564056   -17.4532108   -154.9393005  
1330000000    -12.8258801   -128.0083008  30.6334496    -101.3030014  -56.7406807   117.7265015   -17.4724007   -155.0357971  
1335000000    -12.8467999   -128.5007019  30.6221409    -101.8858032  -57.1299896   134.7704926   -17.4547005   -155.3329010  
1340000000    -12.8579102   -128.8287048  30.6141891    -102.4872971  -57.4973907   118.2313004   -17.4237194   -155.5341949  
1345000000    -12.8736401   -129.3907013  30.6035900    -103.0852966  -55.7330818   123.1199036   -17.4238892   -155.8265076  
1350000000    -12.9033899   -129.9160004  30.5886307    -103.7127991  -56.4767990   119.0271988   -17.4343395   -156.4622040  
1355000000    -12.9365301   -130.3739014  30.5792007    -104.3039017  -55.6217194   126.1225967   -17.4654598   -156.5256042  
1360000000    -12.9646797   -130.8899994  30.5643997    -104.8924026  -56.4683990   115.7739029   -17.4803600   -156.9169006  
1365000000    -12.9919100   -131.3029938  30.5527306    -105.4797974  -55.4525986   112.0196991   -17.4462395   -157.1083069  
1370000000    -13.0254698   -131.7702026  30.5379295    -106.0932999  -55.6452484   114.3287964   -17.4625702   -157.4886017  
1375000000    -13.0459805   -132.1674042  30.5294609    -106.6940002  -56.1443405   114.8190002   -17.5006008   -157.7319031  
1380000000    -13.0824604   -132.5617065  30.5139999    -107.2643967  -56.9684601   121.6575012   -17.4836998   -158.0169067  
1385000000    -13.1016598   -133.1130981  30.5028095    -107.8867035  -55.9794617   123.9850998   -17.4799995   -158.4089966  
1390000000    -13.1261902   -133.5576935  30.4861698    -108.4806976  -56.0044899   121.5046005   -17.4827499   -158.8274994  
1395000000    -13.1658096   -134.0630035  30.4757404    -109.1014023  -55.5870399   113.2192993   -17.4999199   -159.0518951  
1400000000    -13.1827002   -134.4013977  30.4609909    -109.6856003  -56.0611916   113.5453033   -17.5017891   -159.3598022  
1405000000    -13.2124300   -134.9821930  30.4443493    -110.2529984  -55.1721802   120.9987030   -17.5060101   -159.8419037  
1410000000    -13.2586699   -135.4176025  30.4300900    -110.8705978  -54.8776703   117.9822006   -17.5276394   -160.0057068  
1415000000    -13.2710304   -135.8000031  30.4167595    -111.4599991  -55.9875107   120.7342987   -17.5443802   -160.3639069  
1420000000    -13.3078604   -136.3088074  30.4009209    -112.0668030  -54.8630714   120.2745972   -17.5538406   -160.6764069  
1425000000    -13.3291798   -136.6992035  30.3846092    -112.6576996  -55.8312912   116.5202026   -17.5467300   -160.9384003  
1430000000    -13.3530397   -137.0334930  30.3699703    -113.2612000  -55.8989601   110.3728027   -17.5503006   -161.4920044  
1435000000    -13.4025297   -137.4953003  30.3571491    -113.8506012  -55.0719795   118.1943970   -17.5878792   -161.7644958  
1440000000    -13.4188099   -137.9266968  30.3399792    -114.4573975  -55.1100616   111.7619019   -17.5880508   -162.3065033  
1445000000    -13.4556799   -138.3446960  30.3260403    -115.0391006  -55.4061813   116.8128967   -17.5738392   -162.6470032  
1450000000    -13.4791002   -138.6967926  30.3069897    -115.6546021  -54.7780800   117.9621964   -17.5971699   -163.0787048  
1455000000    -13.5360203   -139.2263947  30.2919292    -116.2613983  -56.1259689   111.7786026   -17.6282101   -163.5498962  
