!Mini-Circuits Laboratory
!S-Parameters
!Model: PMA-545G2+
!Run / Lot / Date Code: N/A / N/A / NA
!Fixture: NA; TEST BOARD: TB-607+
!AUTO PORT EXTENSION DONE: PORT<1>=120.99ps; PORT<2>=143.047ps
!Network Analyzer: PNA-X N5242A - 423 4 ports;  Serial number: 71256
!Date: 1/11/2011
!S/N: Unit# 3
!
# Hz  S  dB  R  50
!Frequency    S11 dB        S11 Deg       S21 dB        S21 Deg       S12 dB        S12 Deg       S22 dB        S22 Deg       
700000000     -15.9331799   -52.0403595   32.1999397    -21.3401699   -64.3680267   147.0238037   -16.9426994   -168.4925995  
705000000     -15.8465900   -52.9044991   32.1859207    -22.1714897   -64.2982483   130.7424927   -16.9070091   -168.3831024  
710000000     -15.7543898   -53.8270302   32.1838493    -22.9554596   -61.9630394   123.8108978   -16.9314594   -168.3804016  
715000000     -15.6582298   -54.4168510   32.1739311    -23.7421703   -63.3226395   124.8844986   -16.9517708   -168.2890015  
720000000     -15.5584402   -55.2391205   32.1640587    -24.5104008   -65.1270905   131.9514008   -16.9362392   -168.2799072  
725000000     -15.4514599   -56.1583405   32.1580009    -25.2926807   -64.4884872   139.1396942   -16.9831696   -168.2109985  
730000000     -15.3710299   -56.8664703   32.1495399    -26.0562401   -64.2951508   117.3282013   -16.9375305   -168.1634979  
735000000     -15.3054705   -57.8166199   32.1379204    -26.8260708   -60.8283195   122.6063995   -16.9228096   -167.9015961  
740000000     -15.2323303   -58.3656807   32.1270218    -27.5834904   -65.9203262   130.7729034   -16.9526691   -168.1405029  
745000000     -15.1638403   -59.2070999   32.1233406    -28.3184299   -63.2409286   115.6790009   -16.9315491   -168.0726929  
750000000     -15.0781403   -59.9704094   32.1158104    -29.0747299   -64.6382599   132.7949982   -16.9413700   -167.8739929  
755000000     -15.0612202   -60.7928581   32.1074791    -29.8437309   -68.3378220   100.7609024   -16.9640903   -167.9356995  
760000000     -14.9884996   -61.5346107   32.1011391    -30.5692291   -63.2908401   126.1845016   -16.9390106   -167.9344025  
765000000     -14.9333696   -62.1931992   32.0900116    -31.2775803   -65.0668488   126.7025986   -16.9482002   -167.6954041  
770000000     -14.8344297   -63.0404701   32.0839005    -32.0357590   -67.3255920   165.9362946   -16.9537506   -167.8563995  
775000000     -14.8091898   -63.8140297   32.0774193    -32.7522888   -67.2577972   102.9177017   -16.9564495   -167.5516968  
780000000     -14.7442799   -64.4914169   32.0656204    -33.4621010   -65.6200333   143.1143951   -16.9689102   -167.7779999  
785000000     -14.6932802   -65.2165680   32.0599594    -34.1697197   -63.5079117   117.4581985   -16.9691696   -167.7183075  
790000000     -14.6489801   -65.9244003   32.0540810    -34.8848190   -64.9378128   102.5243988   -16.9742107   -167.5903931  
795000000     -14.6157103   -66.7941437   32.0449600    -35.6020317   -63.5191498   132.6268005   -17.0076904   -167.6705017  
800000000     -14.5564604   -67.3005371   32.0420113    -36.2999992   -64.9875565   153.8401031   -17.0414391   -167.5960999  
805000000     -14.5127296   -68.1611481   32.0409889    -36.9729195   -63.5583916   135.1423035   -17.0280800   -167.3161926  
810000000     -14.4872303   -68.9098511   32.0305595    -37.7125816   -62.0037384   131.9158936   -16.9872093   -167.4384003  
815000000     -14.4525299   -69.6928101   32.0241890    -38.4220009   -62.0410309   129.9873047   -17.0066109   -167.4279022  
820000000     -14.4325399   -70.4226227   32.0188484    -39.1084595   -64.8434677   148.4754028   -17.0307503   -167.6082001  
825000000     -14.3961897   -70.9954987   32.0093193    -39.7818604   -63.0439415   138.6940002   -16.9916706   -167.5171051  
830000000     -14.3645897   -71.8293915   32.0079689    -40.4797096   -63.1755104   124.6819000   -17.0230598   -167.7548981  
835000000     -14.3596201   -72.3833237   31.9990501    -41.1562119   -62.8496094   129.2131042   -17.0247707   -167.5343933  
840000000     -14.3073502   -73.0881500   31.9954491    -41.8507690   -60.8760109   130.3876038   -17.0585308   -167.5523071  
845000000     -14.3209105   -73.9746323   31.9885292    -42.5212593   -62.6219597   132.3348999   -17.0467606   -167.5803986  
850000000     -14.2733603   -74.6857529   31.9845200    -43.2148094   -63.1077309   117.8694992   -17.0181408   -167.5182037  
855000000     -14.2564402   -75.4062424   31.9778709    -43.8987999   -63.8422890   130.6439056   -17.0317593   -167.5155029  
860000000     -14.2372503   -76.2755737   31.9724808    -44.5676498   -63.2655487   122.9860001   -17.0376301   -167.5305939  
865000000     -14.2224703   -76.8307037   31.9675102    -45.2266197   -65.0419464   140.8489990   -17.0522308   -167.4141998  
870000000     -14.1627998   -77.5771332   31.9650402    -45.8906898   -62.1243896   121.1854019   -17.0438709   -167.2937927  
875000000     -14.1472397   -78.3010635   31.9573307    -46.5609818   -60.8604393   115.4058990   -17.0375710   -167.5305023  
880000000     -14.1396999   -79.0715866   31.9516296    -47.2411690   -60.5490799   132.8166046   -17.0151806   -167.2458954  
885000000     -14.1284103   -79.6563873   31.9484692    -47.9168510   -64.0675735   125.8413010   -17.0502605   -167.1231995  
890000000     -14.1228399   -80.3595734   31.9453793    -48.5492516   -62.1763382   126.0063019   -17.0435200   -167.3289948  
895000000     -14.0812302   -81.0047073   31.9344292    -49.2328300   -63.0046082   124.2774963   -17.0308895   -167.4243011  
900000000     -14.0882902   -81.8063431   31.9287796    -49.8721886   -63.4912987   127.5888977   -17.0336800   -167.2973938  
905000000     -14.0623798   -82.5042572   31.9248695    -50.5394783   -64.7603683   123.9446030   -17.0301991   -167.2162018  
910000000     -14.0660105   -83.1962585   31.9247494    -51.1670990   -62.4408684   126.6132965   -17.0280399   -167.0823059  
915000000     -14.0474501   -83.8678894   31.9145298    -51.8371506   -63.6375504   123.5012970   -17.0087509   -167.2017059  
920000000     -14.0389900   -84.4552765   31.9124508    -52.4925003   -64.3691177   134.9174957   -17.0433598   -167.2389069  
925000000     -14.0176201   -85.2975464   31.9072895    -53.1330605   -60.6539192   116.4373016   -17.0258408   -167.0771027  
930000000     -13.9780798   -85.8400116   31.9051991    -53.7736588   -59.3070412   131.5119934   -17.0122108   -166.8106995  
935000000     -13.9983997   -86.4834137   31.8984509    -54.3978806   -61.5608406   136.7680969   -17.0428505   -167.0440979  
940000000     -14.0195799   -87.2933731   31.8947601    -55.0977097   -60.4579391   109.2180023   -16.9971809   -167.1201935  
945000000     -13.9759302   -87.8802338   31.8878002    -55.7159805   -62.0388107   135.7440033   -17.0052299   -166.8925018  
950000000     -13.9914303   -88.6394119   31.8834705    -56.3404808   -60.7849388   117.5397034   -17.0197792   -166.8643036  
955000000     -13.9704103   -89.4461517   31.8791599    -56.9847908   -61.0430298   147.7841949   -17.0085392   -166.8276978  
960000000     -13.9777899   -89.9157867   31.8725700    -57.6152496   -62.4459991   132.4635010   -17.0403194   -166.7138062  
965000000     -13.9673204   -90.6661682   31.8699799    -58.2615089   -62.0123100   125.8229980   -17.0290794   -166.7543030  
970000000     -13.9693804   -91.2002335   31.8673401    -58.8677292   -60.2128296   136.1860046   -17.0483208   -166.8784027  
975000000     -13.9540501   -91.9025269   31.8597603    -59.5215416   -60.9889793   115.8848038   -17.0294991   -166.9485016  
980000000     -13.9609499   -92.5731506   31.8566093    -60.1264915   -59.2202606   123.6085968   -17.0289307   -166.6835022  
985000000     -13.9748697   -93.2423782   31.8550797    -60.7853394   -62.2713585   111.2537003   -17.0440407   -166.7406006  
990000000     -13.9479599   -93.9729691   31.8499107    -61.3860588   -60.8092384   125.8594971   -17.0233307   -166.6215973  
995000000     -13.9499502   -94.6113968   31.8487606    -62.0346107   -60.0030785   130.4476929   -17.0104504   -166.6398926  
1000000000    -13.9572401   -95.2377625   31.8426609    -62.6629791   -62.8873291   127.4532013   -17.0094891   -166.6562042  
1005000000    -13.9842300   -95.8700485   31.8392696    -63.3003616   -58.1819191   129.1647034   -16.9914894   -166.5558014  
1010000000    -13.9638395   -96.5833588   31.8364201    -63.9055595   -61.4482002   123.9912033   -17.0018597   -166.6985931  
1015000000    -13.9610796   -97.2087936   31.8288803    -64.5416565   -62.0878410   111.6938019   -17.0100403   -166.7102966  
1020000000    -13.9926100   -97.8792725   31.8284893    -65.1730728   -59.5721817   110.6539993   -16.9934196   -166.7012939  
1025000000    -13.9634199   -98.5843964   31.8242092    -65.7882538   -59.9313202   109.1432037   -17.0105305   -166.5816040  
1030000000    -13.9898100   -99.2064819   31.8182793    -66.4330215   -61.0692787   109.7528000   -16.9760799   -166.6674957  
1035000000    -14.0005999   -99.9190521   31.8205891    -67.0478210   -62.2950096   102.3442993   -16.9983597   -166.5023956  
1040000000    -13.9865303   -100.5737000  31.8129005    -67.6612167   -59.8788490   118.4483032   -16.9788208   -166.6463928  
1045000000    -14.0094299   -101.1294022  31.8095398    -68.2926178   -61.1122513   127.3350983   -16.9832191   -166.4456940  
1050000000    -14.0257998   -101.9074020  31.8062801    -68.9004822   -58.6997604   114.4222031   -16.9836502   -166.4589996  
1055000000    -14.0126200   -102.5921021  31.8011303    -69.5331497   -59.2471886   137.7633972   -17.0066509   -166.6647034  
1060000000    -14.0401201   -103.2710037  31.7973404    -70.1465378   -58.7597389   122.0095978   -16.9835205   -166.6136017  
1065000000    -14.0393400   -103.9442978  31.7926006    -70.7619781   -60.0255318   133.3894043   -16.9946804   -166.6640930  
1070000000    -14.0600996   -104.5408020  31.7911091    -71.3862762   -58.5222816   116.9567032   -16.9766102   -166.6683044  
1075000000    -14.0649099   -105.2677002  31.7836704    -72.0174026   -61.2975197   141.0411072   -16.9976006   -166.7955933  
1080000000    -14.0963602   -105.8656998  31.7800407    -72.6250916   -61.5065918   114.9949036   -16.9712505   -166.9573059  
1085000000    -14.0951700   -106.5373993  31.7779102    -73.2518616   -58.3539810   120.0420990   -16.9470100   -167.0135040  
1090000000    -14.1026802   -107.3018036  31.7761402    -73.8618393   -57.7389603   121.9394989   -16.9293499   -167.1336975  
1095000000    -14.1225100   -108.0274963  31.7698898    -74.4992828   -61.3718491   113.0953979   -16.9198399   -167.0054016  
1100000000    -14.1342602   -108.6318970  31.7663097    -75.1002731   -58.6546593   118.7306976   -16.9291191   -167.0175018  
1105000000    -14.1518602   -109.3319016  31.7632198    -75.7510834   -61.4090881   108.2347031   -16.9367599   -167.2857971  
1110000000    -14.1511202   -109.9539032  31.7581806    -76.3616028   -59.7035599   116.1468964   -16.9257202   -167.1022034  
1115000000    -14.1520996   -110.6264038  31.7550297    -76.9604568   -60.7429199   130.0807037   -16.9450607   -167.2409973  
1120000000    -14.1778498   -111.4150009  31.7485008    -77.5849762   -57.7268105   126.1981964   -16.9226799   -167.2393036  
1125000000    -14.1968298   -111.9571991  31.7441406    -78.1957321   -61.2560196   119.5606003   -16.9552097   -167.3791962  
1130000000    -14.1985302   -112.7929993  31.7419701    -78.8218765   -61.1897697   108.5524979   -16.9588795   -167.1616058  
1135000000    -14.1756601   -113.5198975  31.7408695    -79.4239883   -58.0251198   122.0409012   -16.8829708   -167.1858063  
1140000000    -14.1861601   -114.2350006  31.7406597    -80.0571136   -59.9653015   120.4867020   -16.8540897   -167.4481049  
1145000000    -14.2021198   -115.0282974  31.7301807    -80.6829529   -58.1957703   118.1244965   -16.8431606   -167.6231995  
1150000000    -14.2224197   -115.7754974  31.7230492    -81.3145523   -58.4070091   124.1203995   -16.8272305   -167.8305969  
1155000000    -14.2454700   -116.4054031  31.7201805    -81.9489594   -59.3856506   108.5746002   -16.8297100   -167.8713989  
1160000000    -14.2301102   -117.1119003  31.7116203    -82.5648270   -59.7869301   120.8004990   -16.7987003   -168.0677032  
1165000000    -14.2435303   -117.8539963  31.7052002    -83.1855164   -59.3821487   122.0388031   -16.7910709   -168.2525940  
1170000000    -14.2617702   -118.6504974  31.6983395    -83.8084030   -59.3488197   124.4497986   -16.7718506   -168.3816071  
1175000000    -14.2606401   -119.2479019  31.6927795    -84.4288101   -60.6290016   111.5880966   -16.7490692   -168.3771057  
1180000000    -14.2929602   -119.9597015  31.6879902    -85.0469208   -57.5878296   118.2863007   -16.7617207   -168.5411987  
1185000000    -14.2863503   -120.6055984  31.6843700    -85.6396637   -58.1007805   118.4914017   -16.7449703   -168.5337982  
1190000000    -14.3028202   -121.4095001  31.6791592    -86.2746124   -59.3844414   121.0537033   -16.7266293   -168.7322998  
1195000000    -14.2992697   -121.9318008  31.6723499    -86.8908997   -57.8289909   117.7839966   -16.7070408   -168.7808990  
1200000000    -14.3048401   -122.6724014  31.6668701    -87.5037689   -57.4644585   125.8248978   -16.6800404   -168.7463074  
1205000000    -14.2974195   -123.4195023  31.6616592    -88.1275787   -56.6374092   117.6918030   -16.6674995   -168.9237061  
1210000000    -14.3297501   -124.0410995  31.6526299    -88.7624130   -58.5936508   116.8104019   -16.6573009   -169.1419067  
1215000000    -14.3431702   -124.6940002  31.6490402    -89.4005890   -58.8408318   113.1769028   -16.6586094   -169.3470001  
1220000000    -14.3534203   -125.3699036  31.6367397    -90.0086670   -57.2704887   108.7077026   -16.6544895   -169.4850006  
1225000000    -14.3556499   -126.1965027  31.6322708    -90.6404572   -56.5413399   120.0177994   -16.6121902   -169.5451965  
1230000000    -14.3387098   -126.7006989  31.6236706    -91.2547226   -58.0205917   116.5702972   -16.5962009   -169.6640930  
1235000000    -14.3761797   -127.4707031  31.6170292    -91.8424988   -56.6525116   115.9599991   -16.6079292   -169.7864075  
1240000000    -14.3432503   -128.0634003  31.6100998    -92.4527969   -58.9088097   114.0195999   -16.5663891   -169.8094025  
1245000000    -14.3522701   -128.6851044  31.6058102    -93.0718994   -58.7626190   121.2638016   -16.5497494   -169.9436951  
1250000000    -14.3694696   -129.3267975  31.5975800    -93.6948166   -58.3821106   117.5081024   -16.5361900   -170.1524963  
1255000000    -14.3749199   -129.9029999  31.5885296    -94.3158035   -58.6422997   127.4284973   -16.5282307   -170.3289032  
1260000000    -14.3684597   -130.5023956  31.5801697    -94.9339600   -57.5289803   112.6070023   -16.5133400   -170.3820038  
1265000000    -14.3971596   -131.2207031  31.5716000    -95.5338516   -56.3689690   119.7030029   -16.5177708   -170.4452972  
1270000000    -14.3769102   -131.7411041  31.5695000    -96.1638184   -58.1246300   122.2182999   -16.5005302   -170.3889008  
1275000000    -14.3528795   -132.4006042  31.5639706    -96.7832031   -57.0837784   123.3581009   -16.4242592   -170.3946075  
1280000000    -14.3805704   -133.2167969  31.5506897    -97.4427490   -57.5845299   110.4420013   -16.4049702   -170.9555969  
1285000000    -14.4234800   -133.7610016  31.5404396    -98.0345230   -58.1962395   115.4264984   -16.4264507   -171.2079926  
1290000000    -14.4331198   -134.3229065  31.5300598    -98.6615524   -55.3795509   117.6106033   -16.3882504   -171.0070953  
1295000000    -14.4241600   -134.8796997  31.5188198    -99.2684631   -57.7944717   122.5022964   -16.4240303   -171.2884064  
1300000000    -14.4350405   -135.4656067  31.5118103    -99.9076691   -56.0258293   116.1341019   -16.3745708   -171.5285950  
1305000000    -14.4447899   -136.1490021  31.5018406    -100.5207977  -57.0030708   120.8757019   -16.4024391   -171.4362946  
1310000000    -14.4672298   -136.6239929  31.4926205    -101.1454010  -56.6495209   114.5631027   -16.3936100   -171.8822937  
1315000000    -14.4654303   -137.2971039  31.4846401    -101.7266006  -57.2456284   122.9168015   -16.3788700   -171.8267059  
1320000000    -14.5009499   -137.6996002  31.4734306    -102.3487015  -56.1951790   112.1463013   -16.3854008   -172.0023956  
1325000000    -14.4882202   -138.4241028  31.4628601    -102.9789963  -57.3137207   120.1087036   -16.3582897   -172.3482971  
1330000000    -14.5121603   -139.0585938  31.4540005    -103.5990982  -57.0990982   112.9572983   -16.3677597   -172.4080963  
1335000000    -14.5195904   -139.4875031  31.4409809    -104.1942978  -57.1142311   103.8796997   -16.3505096   -172.4057007  
1340000000    -14.5336905   -140.0278931  31.4324398    -104.8144989  -55.9935608   109.8295975   -16.3306408   -172.6071014  
1345000000    -14.5600595   -140.5301971  31.4218102    -105.4125977  -55.3325119   116.9736023   -16.3240395   -172.8827972  
1350000000    -14.5677099   -141.1443939  31.4100208    -106.0397034  -57.2843094   120.6393967   -16.3382492   -173.2055969  
1355000000    -14.5646095   -141.7030945  31.4013691    -106.6632996  -56.4050102   111.7192993   -16.3205299   -173.3672028  
1360000000    -14.5972099   -142.3578949  31.3891792    -107.2703018  -55.4051399   115.2914963   -16.3247108   -173.5843964  
1365000000    -14.6164398   -142.8632965  31.3804092    -107.8740005  -55.2812309   112.0589981   -16.3220005   -173.5646057  
1370000000    -14.6396303   -143.2868042  31.3662701    -108.4934998  -58.3088188   106.1518021   -16.3569603   -173.9035034  
1375000000    -14.6529503   -143.8567047  31.3588600    -109.1206970  -55.9309883   111.8357010   -16.3350391   -174.1311951  
1380000000    -14.6801796   -144.3459930  31.3459606    -109.7090988  -56.4424210   111.5879974   -16.3294392   -174.3992004  
1385000000    -14.6839895   -144.9300995  31.3351707    -110.3490982  -57.6698189   116.5577011   -16.3343391   -174.5534973  
1390000000    -14.7200403   -145.5744934  31.3200798    -110.9589996  -56.8885918   111.3983994   -16.3417206   -174.8264008  
1395000000    -14.7168903   -146.0243988  31.3106308    -111.5888977  -56.0706291   110.6458969   -16.3311691   -175.1208954  
1400000000    -14.7295704   -146.5906982  31.2987309    -112.1899033  -55.8747711   116.7567978   -16.3341999   -175.4548035  
1405000000    -14.7681198   -147.1871948  31.2838707    -112.7787018  -55.2411919   116.3604965   -16.3479309   -175.7982025  
1410000000    -14.7853098   -147.6490021  31.2715397    -113.4132996  -56.1992111   113.3442993   -16.3591099   -176.0343933  
1415000000    -14.7961397   -148.1773071  31.2623692    -114.0158997  -56.1009789   109.7080994   -16.3689404   -176.0258026  
1420000000    -14.8285599   -148.6423950  31.2485409    -114.6452026  -55.0990295   108.8479996   -16.3739491   -176.4317932  
1425000000    -14.8362904   -149.4181061  31.2332497    -115.2632980  -55.7848206   121.9393997   -16.3596401   -176.8202057  
1430000000    -14.8717604   -149.8278961  31.2220097    -115.8759003  -55.8311806   115.1277008   -16.3705807   -177.1811981  
1435000000    -14.8984604   -150.1625977  31.2093601    -116.4906998  -54.6436195   105.1416016   -16.3973808   -177.5061035  
1440000000    -14.9187899   -150.7449951  31.1934891    -117.1169968  -55.6594505   103.8029022   -16.3901005   -177.7637024  
1445000000    -14.9484901   -151.2115936  31.1807308    -117.7136993  -56.4438705   110.3470001   -16.3878002   -178.0498962  
1450000000    -14.9716101   -151.5832062  31.1649094    -118.3475037  -54.4562492   110.1623993   -16.4126892   -178.3813934  
1455000000    -15.0070000   -152.2406006  31.1506405    -118.9673004  -55.3205109   102.3938980   -16.4169006   -178.8610992  
