!Mini-Circuits Laboratory
!S-Parameters
!Model: PMA-545G2+
!Run / Lot / Date Code: N/A / N/A / NA
!Fixture: NA; TEST BOARD: TB-607+
!AUTO PORT EXTENSION DONE: PORT<1>=120.99ps; PORT<2>=143.047ps
!Network Analyzer: PNA-X N5242A - 423 4 ports;  Serial number: 71256
!Date: 1/11/2011
!S/N: Unit# 3
!
# Hz  S  dB  R  50
!Frequency    S11 dB        S11 Deg       S21 dB        S21 Deg       S12 dB        S12 Deg       S22 dB        S22 Deg       
700000000     -11.3600197   -61.7172089   30.8621101    -22.2173309   -70.4372177   130.7503967   -21.2125206   -139.1316986  
705000000     -11.3141499   -62.2630196   30.8441010    -22.9772205   -63.3990517   150.1316071   -21.0852909   -138.6844940  
710000000     -11.2842102   -62.8171616   30.8374805    -23.6925602   -64.7123032   125.7301025   -21.0818691   -138.3811035  
715000000     -11.2522001   -63.2360611   30.8197002    -24.4110909   -64.1043472   117.9237976   -21.0571804   -137.7532043  
720000000     -11.2041397   -63.7362900   30.8047504    -25.1137104   -67.2815628   142.7232056   -20.9835396   -137.9432983  
725000000     -11.1862001   -64.2955627   30.7930698    -25.8308601   -62.7189407   135.4338074   -20.9731407   -137.2557983  
730000000     -11.1458998   -64.6594009   30.7811508    -26.5167599   -64.3025970   112.3525009   -20.8935909   -137.3950043  
735000000     -11.1201696   -65.2685394   30.7671509    -27.2172909   -64.2028275   169.2521973   -20.9026299   -136.9022980  
740000000     -11.0949202   -65.6785431   30.7525997    -27.9112396   -67.0637131   138.1656952   -20.8919907   -136.8249969  
745000000     -11.0678997   -66.1685333   30.7446308    -28.5884609   -64.2501831   130.2646942   -20.8046608   -136.3894958  
750000000     -11.0419502   -66.6352768   30.7331905    -29.2758904   -65.4247437   155.5614014   -20.7767601   -136.1121063  
755000000     -11.0279799   -67.1652603   30.7217693    -29.9788494   -64.6418686   138.9568024   -20.7108498   -135.8424988  
760000000     -11.0136995   -67.7006989   30.7123699    -30.6455002   -67.0153427   126.8617020   -20.6595898   -135.5193939  
765000000     -10.9818401   -68.1824875   30.6984692    -31.3016605   -62.9878006   133.6416016   -20.6603298   -135.4266968  
770000000     -10.9468403   -68.5809174   30.6892395    -31.9843197   -66.6787033   136.2740936   -20.6199398   -134.9550934  
775000000     -10.9359198   -69.1624374   30.6777306    -32.6374702   -64.8330765   128.1851044   -20.5374107   -134.5617981  
780000000     -10.9082098   -69.5739288   30.6652203    -33.2782593   -63.8639984   149.7377930   -20.5366001   -134.6224060  
785000000     -10.9062595   -70.0119171   30.6563892    -33.9321785   -64.6556625   135.9763031   -20.4852295   -134.2500000  
790000000     -10.8847599   -70.5389328   30.6477203    -34.5939484   -62.7344704   115.7724991   -20.4636002   -133.8302002  
795000000     -10.8677797   -71.0473633   30.6357803    -35.2448692   -64.9942627   143.9602051   -20.4785595   -133.7395935  
800000000     -10.8460903   -71.3628235   30.6294708    -35.8879585   -61.9885101   148.8374023   -20.4519901   -133.0832062  
805000000     -10.8307104   -71.9319992   30.6265793    -36.4954987   -64.4294434   137.7124939   -20.3647308   -132.8477936  
810000000     -10.8283501   -72.4050217   30.6144695    -37.1860085   -62.7328491   149.7579956   -20.3295593   -132.6499023  
815000000     -10.8157997   -73.0026932   30.6073704    -37.8353310   -61.3953705   115.1216965   -20.2989998   -132.9987030  
820000000     -10.8187904   -73.5257263   30.5986691    -38.4598503   -65.2883301   110.9869003   -20.3063793   -132.5092926  
825000000     -10.7906704   -73.8675308   30.5864296    -39.0925407   -62.7067909   152.5303955   -20.2210598   -132.4178925  
830000000     -10.7911701   -74.3372192   30.5818806    -39.7277298   -66.7219467   103.7553024   -20.2159004   -132.1407013  
835000000     -10.7938004   -74.8614273   30.5723705    -40.3610611   -62.9446602   148.2272034   -20.1651707   -131.9436951  
840000000     -10.7781897   -75.3104935   30.5652409    -40.9937096   -62.5277481   129.5720978   -20.1298008   -131.7057037  
845000000     -10.7844296   -75.8718872   30.5569000    -41.6078415   -62.6678581   127.5978012   -20.0899105   -131.4046021  
850000000     -10.7749596   -76.3414764   30.5513802    -42.2474098   -61.5512810   140.6002960   -20.0657997   -131.3305969  
855000000     -10.7699299   -76.8454971   30.5443096    -42.8780594   -61.7299194   122.1445999   -20.0041599   -131.1213989  
860000000     -10.7730503   -77.4438705   30.5384693    -43.4853210   -65.7516785   130.5935974   -20.0108795   -131.1356964  
865000000     -10.7642498   -77.8046570   30.5324707    -44.1018600   -64.9382477   144.6970978   -19.9630604   -130.7104950  
870000000     -10.7478199   -78.3154373   30.5263309    -44.7167206   -63.5856895   118.8066025   -19.9260902   -130.5057983  
875000000     -10.7466202   -78.8430023   30.5184193    -45.3479996   -60.4939613   129.0238037   -19.8857307   -130.2817993  
880000000     -10.7632198   -79.2748337   30.5101891    -45.9603195   -63.0343208   127.5202026   -19.8504009   -130.2041016  
885000000     -10.7546196   -79.7991028   30.5070705    -46.5834503   -60.9344711   135.1152954   -19.8172302   -130.0373993  
890000000     -10.7505198   -80.2817612   30.5021191    -47.1795082   -62.1796303   133.5155945   -19.8083992   -129.8415985  
895000000     -10.7504101   -80.7418823   30.4904404    -47.8079910   -62.7397194   141.8195038   -19.7797203   -129.6891937  
900000000     -10.7587900   -81.2792664   30.4841499    -48.4119415   -63.0762901   134.4633942   -19.7536201   -129.7835999  
905000000     -10.7602301   -81.7168579   30.4783707    -49.0139999   -61.9633904   135.5529938   -19.7160091   -129.3742065  
910000000     -10.7750397   -82.2276688   30.4771099    -49.6052399   -63.5582085   143.5265961   -19.6586609   -129.3567963  
915000000     -10.7685204   -82.6555176   30.4661102    -50.2373390   -62.7525406   133.3726044   -19.6166191   -129.2599030  
920000000     -10.7626495   -83.2400208   30.4630909    -50.8298111   -64.5563431   117.4806976   -19.6114502   -129.2510071  
925000000     -10.7525797   -83.6738434   30.4561405    -51.4232407   -60.7754402   129.2496033   -19.5285892   -129.0019989  
930000000     -10.7649803   -84.2211533   30.4504395    -52.0396500   -60.3440590   127.8942032   -19.5248604   -128.7460022  
935000000     -10.7697401   -84.6340027   30.4452705    -52.6099091   -60.5056496   140.2523041   -19.4965000   -128.6741943  
940000000     -10.7803497   -85.1211090   30.4400692    -53.2686882   -62.9071617   132.3094025   -19.4764404   -128.6430969  
945000000     -10.7849102   -85.6684189   30.4335003    -53.8516884   -61.9014587   122.8938980   -19.4420509   -128.7120972  
950000000     -10.7905703   -86.2208633   30.4278908    -54.4310799   -59.0718002   133.5523987   -19.3677998   -128.4107971  
955000000     -10.8006401   -86.6209335   30.4229698    -55.0230713   -62.4060211   118.6706009   -19.3761806   -128.3435974  
960000000     -10.8084202   -87.1474304   30.4145298    -55.6254692   -63.0402412   134.0260010   -19.3428707   -128.1163940  
965000000     -10.8003397   -87.6423035   30.4108391    -56.2320900   -61.3829308   135.7003021   -19.3193703   -128.0587006  
970000000     -10.8153296   -88.0698090   30.4053097    -56.8079414   -62.1863213   125.6466980   -19.3160801   -127.8805008  
975000000     -10.8256598   -88.5738068   30.3983593    -57.4164200   -61.0960083   128.4096985   -19.2525101   -128.0538940  
980000000     -10.8274698   -88.9989395   30.3930092    -57.9802704   -59.6786118   137.5140991   -19.2195892   -127.9485016  
985000000     -10.8301201   -89.4804916   30.3910999    -58.5981789   -59.5094795   143.1714935   -19.2019806   -127.8893967  
990000000     -10.8311796   -90.0985489   30.3852901    -59.1606903   -58.3559685   128.5410004   -19.1496296   -127.9375000  
995000000     -10.8512602   -90.5017319   30.3836899    -59.7639809   -61.2639999   124.9873962   -19.1180191   -127.8731003  
1000000000    -10.8551998   -90.9670334   30.3752003    -60.3504486   -62.4118881   136.4214935   -19.1009502   -127.7282028  
1005000000    -10.8656597   -91.3803024   30.3700504    -60.9499016   -63.4223595   132.2230988   -19.0739307   -127.7040024  
1010000000    -10.8627901   -91.9754410   30.3683605    -61.5241585   -62.1036491   143.7944946   -19.0326309   -127.6952972  
1015000000    -10.8677301   -92.4298935   30.3583698    -62.1199684   -61.1965103   126.1663971   -18.9919491   -127.7303009  
1020000000    -10.8900995   -92.9533920   30.3581104    -62.7039986   -61.4389000   125.3296967   -18.9715195   -127.6063995  
1025000000    -10.8860102   -93.4036102   30.3519993    -63.2886696   -60.5079803   136.1428070   -18.9348698   -127.6507034  
1030000000    -10.9001598   -93.9473267   30.3440495    -63.8860893   -59.9500618   126.1838989   -18.9092503   -127.7919998  
1035000000    -10.9131699   -94.4036102   30.3435402    -64.4747162   -60.4557114   134.5079041   -18.8560200   -127.6997986  
1040000000    -10.9189796   -94.9335403   30.3355694    -65.0465927   -58.1274185   123.6742020   -18.8491096   -127.7180023  
1045000000    -10.9375296   -95.3265915   30.3316898    -65.6382294   -63.3093185   137.0408020   -18.8236008   -127.6929016  
1050000000    -10.9376402   -95.7746429   30.3268604    -66.2073364   -60.5687485   139.0187988   -18.8053608   -127.6423035  
1055000000    -10.9535503   -96.3207321   30.3222504    -66.8069763   -60.4301109   132.4066925   -18.7802200   -127.7167969  
1060000000    -10.9647102   -96.7454071   30.3158398    -67.3920670   -61.3215714   130.3213959   -18.7381992   -127.7227020  
1065000000    -10.9780397   -97.2785568   30.3087406    -67.9674683   -57.9720192   137.2644043   -18.6887398   -127.7639008  
1070000000    -11.0019598   -97.6934433   30.3066998    -68.5636520   -59.1379585   131.6535950   -18.6863594   -127.7519989  
1075000000    -11.0000696   -98.2077789   30.2998905    -69.1481323   -60.0796089   140.9282074   -18.6778908   -127.8149033  
1080000000    -11.0250797   -98.5818787   30.2946796    -69.7221832   -59.3637009   136.2525024   -18.6109200   -128.0372925  
1085000000    -11.0342197   -99.0964203   30.2906895    -70.3096466   -59.6077919   134.6475067   -18.5836296   -127.9655991  
1090000000    -11.0384598   -99.6183701   30.2878799    -70.8913269   -60.1813889   121.7695999   -18.5735493   -128.0852051  
1095000000    -11.0593300   -100.1111984  30.2805309    -71.4849167   -60.2859192   134.8793030   -18.5114994   -128.2848969  
1100000000    -11.0801497   -100.5475006  30.2746201    -72.0471802   -63.0125694   126.1776962   -18.4827099   -127.9907990  
1105000000    -11.0811796   -101.0561981  30.2701492    -72.6725616   -59.1448784   132.6748962   -18.4941597   -128.3027954  
1110000000    -11.0906200   -101.4161987  30.2644501    -73.2437210   -60.1643906   140.8005981   -18.4573994   -128.2532043  
1115000000    -11.1000900   -101.9350967  30.2595196    -73.8052597   -60.4048805   140.1154022   -18.4579792   -128.2120056  
1120000000    -11.1254196   -102.3320007  30.2517796    -74.3988037   -60.2965698   136.2980042   -18.4284592   -128.2398071  
1125000000    -11.1408300   -102.6984024  30.2461605    -74.9792633   -59.5948715   128.8829041   -18.4077091   -128.3193054  
1130000000    -11.1468000   -103.1913986  30.2429695    -75.5617828   -58.6254692   128.5780029   -18.3635693   -128.1354065  
1135000000    -11.1448498   -103.7270966  30.2410393    -76.1209564   -59.6498299   131.8755035   -18.3280907   -128.3553009  
1140000000    -11.1800604   -104.2686996  30.2365303    -76.7335434   -59.6257782   119.5580978   -18.2863197   -128.7129974  
1145000000    -11.1750202   -104.7735977  30.2280903    -77.3222809   -57.4311600   128.6578979   -18.2587299   -128.8881073  
1150000000    -11.2041998   -105.2343979  30.2202301    -77.9033203   -58.6655807   131.3114014   -18.2564507   -128.8816986  
1155000000    -11.2221203   -105.6538010  30.2169399    -78.5060730   -59.1242294   133.8596039   -18.2152004   -129.1833038  
1160000000    -11.2309303   -105.9984970  30.2071095    -79.0929108   -61.7315102   118.7632980   -18.2366409   -129.1526031  
1165000000    -11.2766399   -106.5631027  30.1998501    -79.6729965   -57.6151886   118.8069000   -18.2043304   -129.5332031  
1170000000    -11.2840300   -107.0186005  30.1936798    -80.2769165   -58.4533386   129.3251038   -18.1705608   -129.6293030  
1175000000    -11.3038502   -107.3862991  30.1852894    -80.8562393   -57.8107300   116.7795029   -18.1417007   -129.8717041  
1180000000    -11.3269901   -107.9585037  30.1788597    -81.4425964   -58.4359207   131.8430023   -18.1397400   -129.9804993  
1185000000    -11.3349895   -108.3892975  30.1737709    -82.0102921   -59.2396088   130.3979950   -18.1068306   -130.0189972  
1190000000    -11.3567104   -108.9254990  30.1677094    -82.5891800   -60.5704689   123.5458984   -18.1051197   -130.1493988  
1195000000    -11.3687296   -109.2031021  30.1599808    -83.1838837   -58.2082596   137.2039948   -18.0833702   -130.2127075  
1200000000    -11.3912296   -109.7556000  30.1526108    -83.7608795   -58.0966492   125.0634995   -18.0450191   -130.4266052  
1205000000    -11.3956299   -110.0903015  30.1475792    -84.3481216   -56.8798485   136.6782990   -18.0340099   -130.4956970  
1210000000    -11.4238997   -110.6013031  30.1382599    -84.9531403   -57.7824783   135.7243958   -18.0209904   -130.7671051  
1215000000    -11.4522495   -110.9440994  30.1340408    -85.5607529   -60.3392982   124.8915024   -18.0224094   -130.9243011  
1220000000    -11.4630203   -111.5005035  30.1212292    -86.1370621   -58.4798393   130.9006042   -18.0225601   -131.1018982  
1225000000    -11.4735003   -111.9458008  30.1173000    -86.7389069   -58.6667709   130.6136017   -17.9849701   -131.3332977  
1230000000    -11.5348997   -112.4296036  30.1072006    -87.3261414   -56.1161499   122.9872971   -17.9755001   -131.7015991  
1235000000    -11.5430403   -112.9104996  30.0980606    -87.8886414   -57.9368515   128.5084991   -17.9780006   -131.8047943  
1240000000    -11.5519505   -113.3266983  30.0912609    -88.4701004   -57.8744888   124.4936981   -17.9698696   -131.8842926  
1245000000    -11.5765400   -113.6981964  30.0851593    -89.0579376   -58.3177414   127.6677017   -17.9413109   -132.0811005  
1250000000    -11.5938196   -114.1902008  30.0754395    -89.6479187   -56.7676201   127.6119003   -17.9545803   -132.4756012  
1255000000    -11.6183701   -114.5987015  30.0653992    -90.2409821   -56.6642914   128.2716980   -17.9596405   -132.5594025  
1260000000    -11.6378698   -115.0560989  30.0562897    -90.8300171   -56.9302406   123.1657028   -17.9146309   -132.8153992  
1265000000    -11.6731596   -115.6062012  30.0482502    -91.4048309   -57.6635513   125.0743027   -17.9313507   -133.2050934  
1270000000    -11.6800404   -115.9111023  30.0415306    -92.0061798   -58.6051292   122.4869995   -17.9187908   -133.1920929  
1275000000    -11.6887197   -116.2640991  30.0322895    -92.5625916   -56.7771492   124.6054001   -17.8666096   -133.2606964  
1280000000    -11.7072001   -116.9916992  30.0265198    -93.2054977   -56.9130592   119.9673996   -17.8122501   -133.8822937  
1285000000    -11.7617903   -117.4016037  30.0123005    -93.7888412   -57.2017212   131.0196991   -17.8636093   -134.3049011  
1290000000    -11.7907104   -117.7221985  30.0013294    -94.3810272   -57.4226418   118.5488968   -17.8676395   -134.5263977  
1295000000    -11.8085699   -118.1707993  29.9882793    -94.9596329   -55.5088387   126.1284027   -17.8589001   -134.7664948  
1300000000    -11.8293400   -118.5065002  29.9787598    -95.5689926   -60.0958710   119.4273987   -17.8899593   -134.7975006  
1305000000    -11.8601904   -119.1352997  29.9680901    -96.1551437   -56.1815796   126.3181000   -17.8650494   -135.2850037  
1310000000    -11.8891001   -119.4105988  29.9575996    -96.7554932   -57.2706184   120.1482010   -17.8945599   -135.5435028  
1315000000    -11.9088697   -119.9598007  29.9479599    -97.3103333   -56.9762497   124.6010971   -17.8719501   -135.8381958  
1320000000    -11.9396896   -120.2751999  29.9357796    -97.8999100   -56.3023796   124.0749969   -17.8856907   -136.1233978  
1325000000    -11.9611397   -120.7576981  29.9255104    -98.5158463   -57.0269318   124.6601028   -17.8687305   -136.5126038  
1330000000    -11.9995203   -121.2406006  29.9124794    -99.0955734   -55.9570503   117.3574982   -17.8771305   -136.6847992  
1335000000    -12.0224895   -121.6279984  29.8990192    -99.6813736   -55.8455582   128.4546051   -17.8793793   -137.0547028  
1340000000    -12.0481195   -122.0465012  29.8872395    -100.2786026  -56.6723099   123.4501038   -17.8518200   -137.4333038  
1345000000    -12.0680399   -122.3871002  29.8748398    -100.8445969  -55.9215508   114.9757996   -17.8494606   -137.7779999  
1350000000    -12.1113701   -122.7963028  29.8607407    -101.4448013  -55.6288109   125.2200012   -17.8873901   -138.1495056  
1355000000    -12.1209297   -123.3037033  29.8494606    -102.0354004  -56.9966812   118.9837036   -17.8913097   -138.6000061  
1360000000    -12.1594200   -123.6894989  29.8357105    -102.6211014  -56.8185806   120.3721008   -17.9041405   -138.8202057  
1365000000    -12.1759501   -124.0622025  29.8241997    -103.1932983  -54.8945694   123.9945984   -17.8864594   -139.0337067  
1370000000    -12.2234097   -124.6057968  29.8104401    -103.7827988  -54.7818794   112.1703033   -17.8789597   -139.6851044  
1375000000    -12.2451801   -124.9442978  29.8022099    -104.3912964  -55.3486786   123.6418991   -17.9069099   -139.8031006  
1380000000    -12.2860699   -125.2922974  29.7870693    -104.9473038  -56.0774117   108.6526031   -17.9602509   -140.1799011  
1385000000    -12.3146801   -125.7330017  29.7738609    -105.5622025  -55.1074715   123.8376007   -17.9143791   -140.7001038  
1390000000    -12.3475704   -126.2257996  29.7569904    -106.1468964  -55.0812798   123.0938034   -17.9473095   -140.9488983  
1395000000    -12.3576298   -126.5123978  29.7454491    -106.7556000  -55.7283897   126.9840012   -17.9358292   -141.4178925  
1400000000    -12.3882504   -126.9318008  29.7288704    -107.3240967  -55.4031906   119.7353973   -17.9868393   -141.7474060  
1405000000    -12.4288597   -127.3068008  29.7133007    -107.8904037  -56.1545296   119.4365005   -17.9887791   -142.1051941  
1410000000    -12.4716196   -127.7826996  29.6979599    -108.4949036  -54.9525719   121.9451981   -17.9910393   -142.5231018  
1415000000    -12.4981699   -128.0821991  29.6856308    -109.0683975  -55.4642487   112.7116013   -18.0223904   -142.6159058  
1420000000    -12.5155001   -128.5352936  29.6683407    -109.6759033  -55.1731911   117.8121033   -18.0290298   -143.1842041  
1425000000    -12.5519199   -129.0151062  29.6531506    -110.2561035  -55.5600815   118.3712006   -18.0214405   -143.6062927  
1430000000    -12.5812502   -129.3775024  29.6384392    -110.8402023  -55.1918106   116.8591995   -18.0392609   -144.1172028  
1435000000    -12.6226902   -129.7252045  29.6246490    -111.4275970  -54.4806709   118.0867004   -18.0647507   -144.5809021  
1440000000    -12.6422596   -130.0939941  29.6070309    -112.0347977  -54.9877892   116.2883987   -18.0842400   -144.9145966  
1445000000    -12.6848898   -130.5440979  29.5908794    -112.6075974  -56.7983208   116.3506012   -18.0895901   -145.4866028  
1450000000    -12.7183304   -130.7725983  29.5704193    -113.2158966  -55.8947411   118.3899994   -18.1304798   -145.7758026  
1455000000    -12.7499304   -131.2888031  29.5544109    -113.8031998  -54.6363297   118.5442963   -18.1455708   -146.1246033  
